(1535106757.454785) can0 188#0101FFFF7EFE070D
(1535106757.455518) can0 188#0102FBFFFFFF
(1535106757.456346) can0 188#0201FBFBDEFE06D0
(1535106757.457082) can0 188#0202B7FDCFFF
(1535106757.457900) can0 188#03013EEDDFFF0735
(1535106757.458598) can0 188#0302FBFDBFFF
(1535106757.459439) can0 350#01000D070D130D06
(1535106757.460068) can0 351#01000D09
(1535106757.460913) can0 352#01000D1D0D220D22
(1535106757.461528) can0 353#01000D1D
(1535106757.462394) can0 354#01000D1F0D150D15
(1535106757.462986) can0 355#01000D1D
(1535106757.463888) can0 46A#01000B6D0B410C84
(1535106757.464731) can0 46B#01000B0D0AD90B2B
(1535106757.465626) can0 46C#01000A5D0C23
(1535106757.466455) can0 184#0601436572697A61
(1535106757.467257) can0 184#0602795F55323700
(1535106757.468056) can0 184#060345980CE40300
(1535106757.468859) can0 0C4#3B39403B2D0D230D
(1535106757.469695) can0 0C1#0D7480A705B60E04
(1535106757.470669) can0 0C0#350A000000080000
(1535106757.471387) can0 0C2#0000000000
(1535106757.528240) can0 180#9C0A260122434F33
(1535106757.770736) can0 305#0000000000000000
(1535106757.893049) can0 18EA0000#00EE00
(1535106757.894205) can0 18EEFF00#6400C02C0082F0C0
(1535106758.024928) can0 188#0401EF9FFFFF074F
(1535106758.025645) can0 188#0402FF5EEBBF
(1535106758.026477) can0 188#0501F7BFFFFB0709
(1535106758.027222) can0 188#05023FDFFF7F
(1535106758.028054) can0 188#0601FFFFDFFF073C
(1535106758.028797) can0 188#06027FFFF7DE
(1535106758.029635) can0 356#01000D0C0D0C0D0B
(1535106758.030248) can0 357#01000D0C
(1535106758.031099) can0 358#01000D090D0B0D0B
(1535106758.031714) can0 359#01000D0B
(1535106758.032561) can0 35A#01000D0D0D0E0D0F
(1535106758.033184) can0 35B#01000D0B
(1535106758.034084) can0 56A#01FF000000000000
(1535106758.034973) can0 67A#010007250705075E
(1535106758.035822) can0 67B#01000734072E0714
(1535106758.036742) can0 67C#010007200778
(1535106758.037544) can0 184#0701436572697A61
(1535106758.038351) can0 184#0702795F55323700
(1535106758.039148) can0 184#070340490CE40300
(1535106758.039954) can0 0C4#3B39403B0F0D060D
(1535106758.040781) can0 0C1#0DF17FA705B60E04
(1535106758.041706) can0 0C0#350A000000080000
(1535106758.042420) can0 0C2#0000000000
(1535106758.580287) can0 188#0701FB5FFFFE06EA
(1535106758.580998) can0 188#0702B6FFDFFE
(1535106758.581830) can0 188#0801FFE3FEDF0787
(1535106758.582574) can0 188#0802FFF3FFFA
(1535106758.583404) can0 35C#01000D080D090D0A
(1535106758.584012) can0 35D#01000D08
(1535106758.584858) can0 35E#01000D090D090D0A
(1535106758.585488) can0 35F#01000D09
(1535106758.586330) can0 184#0801436572697A61
(1535106758.587134) can0 184#0802795F55323700
(1535106758.587949) can0 184#080340820CE40300
(1535106758.588801) can0 0C4#3B39403B100D030D
(1535106758.589631) can0 0C1#0DF97FA705B60E04
(1535106758.590576) can0 0C0#350A000000080000
(1535106758.591287) can0 0C2#0000000000
(1535106758.813864) can0 305#0000000000000000
(1535106758.885356) can0 18EA0000#00EE00
(1535106758.886509) can0 18EEFF00#6400C02C0082F0C0
(1535106759.165225) can0 188#0101FFFF7EFE070C
(1535106759.165957) can0 188#0102FBFFFFFF
(1535106759.166767) can0 188#0201FBFBDEFE06D0
(1535106759.167524) can0 188#0202B7FDCFFF
(1535106759.168340) can0 188#03013EEDDFFF0735
(1535106759.169042) can0 188#0302FBFDBFFF
(1535106759.169882) can0 350#01000D080D090D08
(1535106759.170496) can0 351#01000D08
(1535106759.171350) can0 352#01000D090D070D06
(1535106759.171959) can0 353#01000D05
(1535106759.172803) can0 354#01000D070D090D06
(1535106759.173414) can0 355#01000D09
(1535106759.174318) can0 76A#0100073106F10775
(1535106759.175167) can0 76B#01000770071B0756
(1535106759.176074) can0 76C#0100070507A0
(1535106759.176910) can0 184#FF01FFFFFFFFFFFF
(1535106759.177759) can0 184#FF02FFFFFFFFFFFF
(1535106759.178622) can0 184#FF03FFFFFFFFFFFF
(1535106759.179444) can0 0C4#3B39F03B0C0D050D
(1535106759.181593) can0 0C1#0DF87FA705B60E04
(1535106759.181639) can0 0C0#350A000000080000
(1535106759.181916) can0 0C2#0000000000
(1535106759.745512) can0 188#0401EF9FFFFF0750
(1535106759.746228) can0 188#0402FF5EEBBF
(1535106759.747066) can0 188#0501F7BFFFFB0709
(1535106759.747813) can0 188#05023FDFFF7F
(1535106759.748637) can0 188#0601FFFFDFFF073C
(1535106759.749376) can0 188#06027FFFF7DE
(1535106759.750251) can0 356#01000D040D090D08
(1535106759.750861) can0 357#01000D02
(1535106759.751710) can0 358#01000D060D050D0D
(1535106759.752366) can0 359#01000D03
(1535106759.753207) can0 35A#01000D090D090D0A
(1535106759.753836) can0 35B#01000D07
(1535106759.754731) can0 06A#0188898B8D868E8F
(1535106759.755407) can0 06B#0191
(1535106759.756364) can0 26A#013F3F3F3F3F3F3F
(1535106759.757072) can0 26B#013F
(1535106759.757919) can0 184#0101436572697A61
(1535106759.758723) can0 184#0102795F55323700
(1535106759.759524) can0 184#0103403C0CE40300
(1535106759.760413) can0 0C4#3B39403B0C0DFF0C
(1535106759.761241) can0 0C1#0DF77FA705B60E04
(1535106759.762155) can0 0C0#350A000000080000
(1535106759.762861) can0 0C2#0000000000
(1535106759.869257) can0 305#0000000000000000
(1535106759.892015) can0 18EA0000#00EE00
(1535106759.894429) can0 18EEFF00#6400C02C0082F0C0
(1535106760.306713) can0 188#0701FB5FFFFE06E9
(1535106760.307452) can0 188#0702B6FFDFFE
(1535106760.308273) can0 188#0801FFE3FEDF0785
(1535106760.309024) can0 188#0802FFF3FFFA
(1535106760.309863) can0 35C#01000D060D060D07
(1535106760.310490) can0 35D#01000D06
(1535106760.311348) can0 35E#01000D050D060D06
(1535106760.312034) can0 35F#01000D05
(1535106760.312921) can0 16A#0100000000000000
(1535106760.313805) can0 16C#0100000000000000
(1535106760.314632) can0 184#0201436572697A61
(1535106760.315433) can0 184#0202795F55323700
(1535106760.316228) can0 184#020340510CE40300
(1535106760.317066) can0 0C4#3B39403B0B0D040D
(1535106760.317870) can0 0C1#0DF77FA705B60E04
(1535106760.318788) can0 0C0#350A000000080000
(1535106760.319525) can0 0C2#0000000000
(1535106760.586831) can0 180#9C0A260122434F33
(1535106760.885728) can0 188#0101FFFF7EFE070D
(1535106760.886467) can0 188#0102FBFFFFFF
(1535106760.886859) can0 18EA0000#00EE00
(1535106760.887332) can0 188#0201FBFBDEFE06D1
(1535106760.887900) can0 18EEFF00#6400C02C0082F0C0
(1535106760.888316) can0 188#0202B7FDCFFF
(1535106760.889160) can0 188#03013EEDDFFF0735
(1535106760.889860) can0 188#0302FBFDBFFF
(1535106760.890732) can0 350#01000D010D0A0D04
(1535106760.891332) can0 351#01000D04
(1535106760.892184) can0 352#01000D070CFF0D04
(1535106760.892803) can0 353#01000D04
(1535106760.893667) can0 354#01000D040D060D05
(1535106760.894322) can0 355#01000D05
(1535106760.895221) can0 46A#0100FEF4FF02FE92
(1535106760.896068) can0 46B#0100FF33FF52FF44
(1535106760.896966) can0 46C#0100FF64FEB8
(1535106760.897771) can0 184#0301436572697A61
(1535106760.898572) can0 184#0302795F55323700
(1535106760.899380) can0 184#030340A50CE40300
(1535106760.900183) can0 0C4#3B39403B0B0D030D
(1535106760.901029) can0 0C1#0DF77FA705B60E04
(1535106760.901953) can0 0C0#350A000000080000
(1535106760.902671) can0 0C2#0000000000
(1535106760.924111) can0 305#0000000000000000
(1535106761.455987) can0 188#0401EF9FFFFF074F
(1535106761.456708) can0 188#0402FF5EEBBF
(1535106761.457565) can0 188#0501F7BFFFFB0707
(1535106761.458285) can0 188#05023FDFFF7F
(1535106761.459113) can0 188#0601FFFFDFFF073D
(1535106761.459854) can0 188#06027FFFF7DE
(1535106761.460734) can0 356#01000D060D050D05
(1535106761.461393) can0 357#01000D03
(1535106761.462270) can0 358#01000D060D040D06
(1535106761.462906) can0 359#01000D05
(1535106761.463755) can0 35A#01000D070D070D08
(1535106761.464391) can0 35B#01000D04
(1535106761.465285) can0 56A#01FF000000000000
(1535106761.466172) can0 67A#0100072507020760
(1535106761.467027) can0 67B#01000734072F0714
(1535106761.467928) can0 67C#0100071F0774
(1535106761.468733) can0 184#0401436572697A61
(1535106761.469545) can0 184#0402795F55323700
(1535106761.470344) can0 184#0403403F0CE40300
(1535106761.471178) can0 0C4#3B39403B0C0DFF0C
(1535106761.472001) can0 0C1#0DF77FA705B60E04
(1535106761.472922) can0 0C0#350A000000080000
(1535106761.473646) can0 0C2#0000000000
(1535106761.887240) can0 18EA0000#00EE00
(1535106761.888425) can0 18EEFF00#6400C02C0082F0C0
(1535106761.969765) can0 305#0000000000000000
(1535106762.011116) can0 188#0701FB5FFFFE06E9
(1535106762.011841) can0 188#0702B6FFDFFE
(1535106762.012663) can0 188#0801FFE3FEDF0785
(1535106762.013414) can0 188#0802FFF3FFFA
(1535106762.014255) can0 35C#01000D050D020D04
(1535106762.014904) can0 35D#01000D03
(1535106762.015760) can0 35E#01000D040D030D05
(1535106762.016425) can0 35F#01000D04
(1535106762.017272) can0 184#0501436572697A61
(1535106762.018069) can0 184#0502795F55323700
(1535106762.018889) can0 184#050340700CE40300
(1535106762.019690) can0 0C4#3B39403B070D000D
(1535106762.020516) can0 0C1#0DF57FA705B60E04
(1535106762.021441) can0 0C0#350A000000080000
(1535106762.022157) can0 0C2#0000000000
(1535106762.596277) can0 188#0101FFFF7EFE070D
(1535106762.597000) can0 188#0102FBFFFFFF
(1535106762.597817) can0 188#0201FBFBDEFE06D0
(1535106762.598565) can0 188#0202B7FDCFFF
(1535106762.599394) can0 188#03013EEDDFFF0735
(1535106762.600105) can0 188#0302FBFDBFFF
(1535106762.600930) can0 350#01000D030D040D03
(1535106762.601584) can0 351#01000D04
(1535106762.602453) can0 352#01000D040D020D02
(1535106762.603101) can0 353#01000D01
(1535106762.603957) can0 354#01000D000CFE0D09
(1535106762.604615) can0 355#01000CFC
(1535106762.605515) can0 76A#0100072F06F10775
(1535106762.606367) can0 76B#01000770071C0756
(1535106762.607257) can0 76C#0100070407A2
(1535106762.608072) can0 184#0601436572697A61
(1535106762.608872) can0 184#0602795F55323700
(1535106762.609680) can0 184#060345980CE40300
(1535106762.610488) can0 0C4#3B39403B090DFA0C
(1535106762.611349) can0 0C1#0DF47FA705B60E04
(1535106762.612313) can0 0C0#350A000000080000
(1535106762.613027) can0 0C2#0000000000
(1535106762.885991) can0 18EA0000#00EE00
(1535106762.887166) can0 18EEFF00#6400C02C0082F0C0
(1535106763.018926) can0 305#0000000000000000
(1535106763.166371) can0 188#0401EF9FFFFF0750
(1535106763.167099) can0 188#0402FF5EEBBF
(1535106763.167913) can0 188#0501F7BFFFFB070A
(1535106763.168668) can0 188#05023FDFFF7F
(1535106763.169496) can0 188#0601FFFFDFFF073C
(1535106763.170243) can0 188#06027FFFF7DE
(1535106763.171092) can0 356#01000D050D040D03
(1535106763.171742) can0 357#01000D03
(1535106763.172605) can0 358#01000D030D040D02
(1535106763.173264) can0 359#01000D03
(1535106763.174118) can0 35A#01000D060CFF0D07
(1535106763.174770) can0 35B#01000D02
(1535106763.175671) can0 06A#0188898B8D868E8F
(1535106763.176355) can0 06B#0191
(1535106763.177299) can0 26A#013F3F3F3F3F3F3F
(1535106763.178000) can0 26B#013F
(1535106763.178855) can0 184#0701436572697A61
(1535106763.179657) can0 184#0702795F55323700
(1535106763.180459) can0 184#070340490CE40300
(1535106763.181267) can0 0C4#3B39403B070DFF0C
(1535106763.182105) can0 0C1#0DF47FA705B60E04
(1535106763.183074) can0 0C0#350A000000080000
(1535106763.183782) can0 0C2#0000000000
(1535106763.687535) can0 180#9C0A260122434F33
(1535106763.799135) can0 188#0701FB5FFFFE06EB
(1535106763.799213) can0 188#0702B6FFDFFE
(1535106763.800018) can0 188#0801FFE3FEDF0786
(1535106763.800442) can0 188#0802FFF3FFFA
(1535106763.801291) can0 35C#01000D000D010D02
(1535106763.801942) can0 35D#01000D01
(1535106763.802803) can0 35E#01000D020D010D01
(1535106763.803411) can0 35F#01000D01
(1535106763.804307) can0 16A#0100000000000000
(1535106763.805198) can0 16C#0100000000000000
(1535106763.806025) can0 184#0801436572697A61
(1535106763.806817) can0 184#0802795F55323700
(1535106763.807646) can0 184#080340820CE40300
(1535106763.808488) can0 0C4#3B39403B050DFD0C
(1535106763.809324) can0 0C1#0DF37FA705B60E04
(1535106763.810240) can0 0C0#350A000000080000
(1535106763.810952) can0 0C2#0000000000
(1535106763.883835) can0 18EA0000#00EE00
(1535106763.885183) can0 18EEFF00#6400C02C0082F0C0
(1535106764.133453) can0 305#0000000000000000
(1535106764.376745) can0 188#0101FFFF7EFE070E
(1535106764.377469) can0 188#0102FBFFFFFF
(1535106764.378289) can0 188#0201FBFBDEFE06D1
(1535106764.378978) can0 188#0202B7FDCFFF
(1535106764.379799) can0 188#03013EEDDFFF0735
(1535106764.380498) can0 188#0302FBFDBFFF
(1535106764.381340) can0 350#01000D010D010D01
(1535106764.381955) can0 351#01000D01
(1535106764.386793) can0 352#01000D020D010CFF
(1535106764.386881) can0 353#01000D00
(1535106764.386898) can0 354#01000CFF0D010D00
(1535106764.386916) can0 355#01000D01
(1535106764.386932) can0 46A#0100FE94FE91FE33
(1535106764.386949) can0 46B#0100FEBCFEC9FED9
(1535106764.387642) can0 46C#0100FEA4FE77
(1535106764.388470) can0 184#FF01FFFFFFFFFFFF
(1535106764.389317) can0 184#FF02FFFFFFFFFFFF
(1535106764.390173) can0 184#FF03FFFFFFFFFFFF
(1535106764.391013) can0 0C4#3B39F03B090DFC0C
(1535106764.391850) can0 0C1#0DF27FA705B60E04
(1535106764.392823) can0 0C0#350A000000080000
(1535106764.393485) can0 0C2#0000000000
(1535106764.890316) can0 18EA0000#00EE00
(1535106764.891613) can0 18EEFF00#6400C02C0082F0C0
(1535106764.972969) can0 188#0401EF9FFFFF074F
(1535106764.973691) can0 188#0402FF5EEBBF
(1535106764.974522) can0 188#0501F7BFFFFB0709
(1535106764.975271) can0 188#05023FDFFF7F
(1535106764.976095) can0 188#0601FFFFDFFF073C
(1535106764.976842) can0 188#06027FFFF7DE
(1535106764.977685) can0 356#01000D010D010D01
(1535106764.978288) can0 357#01000CFF
(1535106764.979159) can0 358#01000D020D000CFF
(1535106764.979813) can0 359#01000D00
(1535106764.980663) can0 35A#01000D030D020D05
(1535106764.981328) can0 35B#01000CFF
(1535106764.982230) can0 56A#01FF000000000000
(1535106764.983101) can0 67A#0100072207040760
(1535106764.983942) can0 67B#01000734072C0715
(1535106764.984851) can0 67C#0100071E0776
(1535106764.985667) can0 184#0101436572697A61
(1535106764.986464) can0 184#0102795F55323700
(1535106764.987269) can0 184#0103403C0CE40300
(1535106764.988120) can0 0C4#3B39403B050DFE0C
(1535106764.988956) can0 0C1#0DF17FA705B60E04
(1535106764.989889) can0 0C0#350A000000080000
(1535106764.990597) can0 0C2#0000000000
(1535106765.286694) can0 305#0000000000000000
(1535106765.502124) can0 188#0701FB5FFFFE06EB
(1535106765.502849) can0 188#0702B6FFDFFE
(1535106765.503673) can0 188#0801FFE3FEDF0787
(1535106765.504427) can0 188#0802FFF3FFFA
(1535106765.505267) can0 35C#01000CFE0D040CFB
(1535106765.505917) can0 35D#01000D03
(1535106765.506778) can0 35E#01000CFF0D000D01
(1535106765.507450) can0 35F#01000CFF
(1535106765.508306) can0 184#0201436572697A61
(1535106765.509098) can0 184#0202795F55323700
(1535106765.509892) can0 184#020340510CE40300
(1535106765.510701) can0 0C4#3B39403B050DFD0C
(1535106765.511532) can0 0C1#0DF17FA705B60E04
(1535106765.512466) can0 0C0#350A000000080000
(1535106765.513182) can0 0C2#0000000000
(1535106765.886618) can0 18EA0000#00EE00
(1535106765.887788) can0 18EEFF00#6400C02C0082F0C0
(1535106766.087188) can0 188#0101FFFF7EFE070C
(1535106766.087914) can0 188#0102FBFFFFFF
(1535106766.088737) can0 188#0201FBFBDEFE06D2
(1535106766.089425) can0 188#0202B7FDCFFF
(1535106766.090238) can0 188#03013EEDDFFF0736
(1535106766.090940) can0 188#0302FBFDBFFF
(1535106766.091788) can0 350#01000CFE0D000D01
(1535106766.092415) can0 351#01000CFE
(1535106766.093275) can0 352#01000D020D000CFD
(1535106766.093933) can0 353#01000CFE
(1535106766.094796) can0 354#01000CFE0CFF0CFE
(1535106766.095444) can0 355#01000CFE
(1535106766.096349) can0 76A#0100072F06F20775
(1535106766.097191) can0 76B#01000772071B0758
(1535106766.098097) can0 76C#0100070507A2
(1535106766.098905) can0 184#0301436572697A61
(1535106766.099704) can0 184#0302795F55323700
(1535106766.100532) can0 184#030340A50CE40300
(1535106766.101324) can0 0C4#3B39403B050DFA0C
(1535106766.102180) can0 0C1#0DF07FA705B60E04
(1535106766.103141) can0 0C0#350A000000080000
(1535106766.103872) can0 0C2#0000000000
(1535106766.338895) can0 305#0000000000000000
(1535106766.657360) can0 188#0401EF9FFFFF074F
(1535106766.658070) can0 188#0402FF5EEBBF
(1535106766.658898) can0 188#0501F7BFFFFB0709
(1535106766.659688) can0 188#05023FDFFF7F
(1535106766.660472) can0 188#0601FFFFDFFF073C
(1535106766.661217) can0 188#06027FFFF7DE
(1535106766.662057) can0 356#01000D050CFC0CFB
(1535106766.662674) can0 357#01000D06
(1535106766.663529) can0 358#01000CFF0CFF0CFF
(1535106766.664183) can0 359#01000CFF
(1535106766.665036) can0 35A#01000D030D010D02
(1535106766.665694) can0 35B#01000CFE
(1535106766.666609) can0 06A#0188898B8D868E8F
(1535106766.667276) can0 06B#0191
(1535106766.668220) can0 26A#013F3F3F3F3F3F3F
(1535106766.668932) can0 26B#013F
(1535106766.669724) can0 184#0401436572697A61
(1535106766.670525) can0 184#0402795F55323700
(1535106766.671337) can0 184#0403403F0CE40300
(1535106766.672204) can0 0C4#3B39403B020DFC0C
(1535106766.672987) can0 0C1#0DEF7FA705B60E04
(1535106766.673915) can0 0C0#350A000000080000
(1535106766.674625) can0 0C2#0000000000
(1535106766.788320) can0 180#9C0A260122434F33
(1535106766.891288) can0 18EA0000#00EE00
(1535106766.892364) can0 18EEFF00#6400C02C0082F0C0
(1535106767.212685) can0 188#0701FB5FFFFE06EC
(1535106767.213420) can0 188#0702B6FFDFFE
(1535106767.214238) can0 188#0801FFE3FEDF0786
(1535106767.214988) can0 188#0802FFF3FFFA
(1535106767.215830) can0 35C#01000CFD0CFE0D00
(1535106767.216487) can0 35D#01000CFD
(1535106767.217340) can0 35E#01000CFD0CFE0CFE
(1535106767.218015) can0 35F#01000CFD
(1535106767.218915) can0 16A#0100000000000000
(1535106767.219797) can0 16C#0100000000000000
(1535106767.220647) can0 184#0501436572697A61
(1535106767.221424) can0 184#0502795F55323700
(1535106767.222232) can0 184#050340700CE40300
(1535106767.223086) can0 0C4#3B39403B050DF90C
(1535106767.223917) can0 0C1#0DEF7FA705B60E04
(1535106767.224836) can0 0C0#350A000000080000
(1535106767.225550) can0 0C2#0000000000
(1535106767.387854) can0 305#0000000000000000
(1535106767.797708) can0 188#0101FFFF7EFE070C
(1535106767.798439) can0 188#0102FBFFFFFF
(1535106767.799254) can0 188#0201FBFBDEFE06D0
(1535106767.800000) can0 188#0202B7FDCFFF
(1535106767.800824) can0 188#03013EEDDFFF0736
(1535106767.801517) can0 188#0302FBFDBFFF
(1535106767.802385) can0 350#01000CFE0CFE0CFF
(1535106767.803030) can0 351#01000CFE
(1535106767.803880) can0 352#01000CFF0CFD0CFC
(1535106767.804493) can0 353#01000CFB
(1535106767.805347) can0 354#01000CFB0CFD0CFD
(1535106767.806008) can0 355#01000CFD
(1535106767.806914) can0 46A#0100FE38FE04FDB1
(1535106767.807766) can0 46B#0100FE2FFE39FE62
(1535106767.808677) can0 46C#0100FE51FDCA
(1535106767.809468) can0 184#0601436572697A61
(1535106767.810268) can0 184#0602795F55323700
(1535106767.811069) can0 184#060345980CE40300
(1535106767.811901) can0 0C4#3B39403B010DFB0C
(1535106767.812877) can0 0C1#0DED7FA705B60E04
(1535106767.813662) can0 0C0#350A000000080000
(1535106767.814370) can0 0C2#0000000000
(1535106767.886039) can0 18EA0000#00EE00
(1535106767.887204) can0 18EEFF00#6400C02C0082F0C0
(1535106768.384014) can0 188#0401EF9FFFFF0750
(1535106768.384735) can0 188#0402FF5EEBBF
(1535106768.385565) can0 188#0501F7BFFFFB0709
(1535106768.386307) can0 188#05023FDFFF7F
(1535106768.387143) can0 188#0601FFFFDFFF073C
(1535106768.387889) can0 188#06027FFFF7DE
(1535106768.388727) can0 356#01000CFF0CFE0CFE
(1535106768.389390) can0 357#01000CFD
(1535106768.390254) can0 358#01000CFD0CFE0CFD
(1535106768.390910) can0 359#01000D00
(1535106768.391751) can0 35A#01000D010CFE0D03
(1535106768.392411) can0 35B#01000CFE
(1535106768.393325) can0 56A#01FF000000000000
(1535106768.394227) can0 67A#0100072207050761
(1535106768.395123) can0 67B#01000733072F0714
(1535106768.396027) can0 67C#0100071E0774
(1535106768.396838) can0 184#0701436572697A61
(1535106768.397642) can0 184#0702795F55323700
(1535106768.398438) can0 184#070340490CE40300
(1535106768.399245) can0 0C4#3B39403B030DF70C
(1535106768.400070) can0 0C1#0DEC7FA705B60E04
(1535106768.401010) can0 0C0#350A000000080000
(1535106768.401715) can0 0C2#0000000000
(1535106768.436076) can0 305#0000000000000000
(1535106768.889445) can0 18EA0000#00EE00
(1535106768.890734) can0 18EEFF00#6400C02C0082F0C0
(1535106768.923057) can0 188#0701FB5FFFFE06EB
(1535106768.923820) can0 188#0702B6FFDFFE
(1535106768.924609) can0 188#0801FFE3FEDF0787
(1535106768.925356) can0 188#0802FFF3FFFA
(1535106768.926188) can0 35C#01000CFD0CFB0CFB
(1535106768.926862) can0 35D#01000CFC
(1535106768.927706) can0 35E#01000CFA0CFB0CFA
(1535106768.928377) can0 35F#01000CFB
(1535106768.929219) can0 184#0801436572697A61
(1535106768.930040) can0 184#0802795F55323700
(1535106768.930830) can0 184#080340820CE40300
(1535106768.931693) can0 0C4#3B39403B020DF40C
(1535106768.932570) can0 0C1#0DE87FA705B60E04
(1535106768.933515) can0 0C0#350A000000080000
(1535106768.934241) can0 0C2#0000000000
(1535106769.492384) can0 305#0000000000000000
(1535106769.508214) can0 188#0101FFFF7EFE070D
(1535106769.508917) can0 188#0102FBFFFFFF
(1535106769.509732) can0 188#0201FBFBDEFE06D2
(1535106769.510427) can0 188#0202B7FDCFFF
(1535106769.511244) can0 188#03013EEDDFFF0735
(1535106769.511948) can0 188#0302FBFDBFFF
(1535106769.512810) can0 350#01000CFB0CF50D00
(1535106769.513410) can0 351#01000CF6
(1535106769.514282) can0 352#01000CFC0CF90CF8
(1535106769.514939) can0 353#01000CF9
(1535106769.515816) can0 354#01000CF80CFA0CF8
(1535106769.516449) can0 355#01000CFA
(1535106769.517409) can0 76A#0100073006F20775
(1535106769.518202) can0 76B#01000771071D0757
(1535106769.519094) can0 76C#0100070207A1
(1535106769.519943) can0 184#FF01FFFFFFFFFFFF
(1535106769.520785) can0 184#FF02FFFFFFFFFFFF
(1535106769.521643) can0 184#FF03FFFFFFFFFFFF
(1535106769.522479) can0 0C4#3B39F03BFF0CF80C
(1535106769.523329) can0 0C1#0DE27FA705B60E04
(1535106769.524256) can0 0C0#350A000000080000
(1535106769.524967) can0 0C2#0000000000
(1535106769.889219) can0 180#9C0A260122434F33
(1535106769.890450) can0 18EA0000#00EE00
(1535106769.891511) can0 18EEFF00#6400C02C0082F0C0
(1535106770.078345) can0 188#0401EF9FFFFF074F
(1535106770.079068) can0 188#0402FF5EEBBF
(1535106770.079898) can0 188#0501F7BFFFFB070A
(1535106770.080596) can0 188#05023FDFFF7F
(1535106770.081416) can0 188#0601FFFFDFFF073D
(1535106770.082173) can0 188#06027FFFF7DE
(1535106770.083018) can0 356#01000CFA0CF80CF9
(1535106770.083671) can0 357#01000CF9
(1535106770.084535) can0 358#01000CFA0CF80CF7
(1535106770.085179) can0 359#01000CFB
(1535106770.086037) can0 35A#01000CFD0CFC0CF1
(1535106770.086640) can0 35B#01000D01
(1535106770.087553) can0 06A#0188898B8D868E8F
(1535106770.088234) can0 06B#0191
(1535106770.089178) can0 26A#013F3F3F3F3F3F3F
(1535106770.089874) can0 26B#013F
(1535106770.090731) can0 184#0101436572697A61
(1535106770.091533) can0 184#0102795F55323700
(1535106770.092338) can0 184#0103403C0CE40300
(1535106770.093196) can0 0C4#3B39403BFC0CF60C
(1535106770.094017) can0 0C1#0DDC7FA705B60E04
(1535106770.094944) can0 0C0#350A000000080000
(1535106770.095658) can0 0C2#0000000000
(1535106770.629183) can0 305#0000000000000000
(1535106770.633545) can0 188#0701FB5FFFFE06EA
(1535106770.634279) can0 188#0702B6FFDFFE
(1535106770.635103) can0 188#0801FFE3FEDF0787
(1535106770.635855) can0 188#0802FFF3FFFA
(1535106770.636699) can0 35C#01000CF80CF80CF9
(1535106770.637343) can0 35D#01000CF6
(1535106770.638196) can0 35E#01000CF80CF70CF8
(1535106770.638814) can0 35F#01000CF6
(1535106770.639715) can0 16A#0100000000000000
(1535106770.640603) can0 16C#0100000000000000
(1535106770.641420) can0 184#0201436572697A61
(1535106770.642229) can0 184#0202795F55323700
(1535106770.643021) can0 184#020340510CE40300
(1535106770.643838) can0 0C4#3B39403BFB0CF40C
(1535106770.644684) can0 0C1#0DDA7FA705B60E04
(1535106770.645590) can0 0C0#350A000000080000
(1535106770.646301) can0 0C2#0000000000
(1535106770.889348) can0 18EA0000#00EE00
(1535106770.890522) can0 18EEFF00#6400C02C0082F0C0
(1535106771.218626) can0 188#0101FFFF7EFE070D
(1535106771.219351) can0 188#0102FBFFFFFF
(1535106771.220158) can0 188#0201FBFBDEFE06D1
(1535106771.220866) can0 188#0202B7FDCFFF
(1535106771.221674) can0 188#03013EEDDFFF0735
(1535106771.222375) can0 188#0302FBFDBFFF
(1535106771.223225) can0 350#01000CF40CF80CFE
(1535106771.223858) can0 351#01000CF0
(1535106771.224710) can0 352#01000CF80CF60CF5
(1535106771.225364) can0 353#01000CF4
(1535106771.226213) can0 354#01000CF50CF70CF7
(1535106771.226828) can0 355#01000CF7
(1535106771.227743) can0 46A#0100FBF3FC24FB7B
(1535106771.228635) can0 46B#0100FC4BFC52FC8A
(1535106771.229530) can0 46C#0100FCAEFB81
(1535106771.230344) can0 184#0301436572697A61
(1535106771.231142) can0 184#0302795F55323700
(1535106771.231946) can0 184#030340A50CE40300
(1535106771.232809) can0 0C4#3B39403BFE0CF00C
(1535106771.233608) can0 0C1#0DD97FA705B60E04
(1535106771.234533) can0 0C0#350A000000080000
(1535106771.235242) can0 0C2#0000000000
(1535106771.678945) can0 305#0000000000000000
(1535106771.794914) can0 188#0401EF9FFFFF0750
(1535106771.795633) can0 188#0402FF5EEBBF
(1535106771.796471) can0 188#0501F7BFFFFB0707
(1535106771.797222) can0 188#05023FDFFF7F
(1535106771.798053) can0 188#0601FFFFDFFF073C
(1535106771.798829) can0 188#06027FFFF7DE
(1535106771.799619) can0 356#01000CF90CF70CF7
(1535106771.800236) can0 357#01000CF6
(1535106771.801130) can0 358#01000CF70CF70CF5
(1535106771.801702) can0 359#01000CF8
(1535106771.802542) can0 35A#01000CF70CF80CF9
(1535106771.803154) can0 35B#01000CF5
(1535106771.804075) can0 56A#01FF000000000000
(1535106771.804968) can0 67A#0100072207050760
(1535106771.805865) can0 67B#01000734072F0714
(1535106771.806766) can0 67C#0100071D0775
(1535106771.807575) can0 184#0401436572697A61
(1535106771.808389) can0 184#0402795F55323700
(1535106771.809182) can0 184#0403403F0CE40300
(1535106771.810009) can0 0C4#3B39403BFF0CF10C
(1535106771.810825) can0 0C1#0DD87FA705B60E04
(1535106771.811744) can0 0C0#350A000000080000
(1535106771.812460) can0 0C2#0000000000
(1535106771.884559) can0 18EA0000#00EE00
(1535106771.885614) can0 18EEFF00#6400C02C0082F0C0
(1535106772.344046) can0 188#0701FB5FFFFE06EB
(1535106772.344783) can0 188#0702B6FFDFFE
(1535106772.345614) can0 188#0801FFE3FEDF0786
(1535106772.346358) can0 188#0802FFF3FFFA
(1535106772.347196) can0 35C#01000CF70CF70CF8
(1535106772.347850) can0 35D#01000CF5
(1535106772.348704) can0 35E#01000CF60CF40CF6
(1535106772.349316) can0 35F#01000CF5
(1535106772.350163) can0 184#0501436572697A61
(1535106772.350967) can0 184#0502795F55323700
(1535106772.351773) can0 184#050340700CE40300
(1535106772.352643) can0 0C4#3B39403BFA0CF40C
(1535106772.353462) can0 0C1#0DD97FA705B60E04
(1535106772.354406) can0 0C0#350A000000080000
(1535106772.355116) can0 0C2#0000000000
(1535106772.729148) can0 305#0000000000000000
(1535106772.891694) can0 18EA0000#00EE00
(1535106772.904356) can0 18EEFF00#6400C02C0082F0C0
(1535106772.929158) can0 188#0101FFFF7EFE070C
(1535106772.929875) can0 188#0102FBFFFFFF
(1535106772.930691) can0 188#0201FBFBDEFE06D0
(1535106772.931443) can0 188#0202B7FDCFFF
(1535106772.932262) can0 188#03013EEDDFFF0736
(1535106772.932953) can0 188#0302FBFDBFFF
(1535106772.933814) can0 350#01000CF50CF60CF9
(1535106772.934442) can0 351#01000CF4
(1535106772.935284) can0 352#01000CF90CF40CF3
(1535106772.935883) can0 353#01000CF4
(1535106772.936735) can0 354#01000CF40CF50CF3
(1535106772.937353) can0 355#01000CF7
(1535106772.938249) can0 76A#0100073006F30776
(1535106772.939100) can0 76B#01000771071D0756
(1535106772.940002) can0 76C#0100070407A4
(1535106772.940809) can0 184#0601436572697A61
(1535106772.941606) can0 184#0602795F55323700
(1535106772.942408) can0 184#060345980CE40300
(1535106772.943207) can0 0C4#3B39403BF90CF30C
(1535106772.944073) can0 0C1#0DD87FA705B60E04
(1535106772.944985) can0 0C0#350A000000080000
(1535106772.945707) can0 0C2#0000000000
(1535106773.002558) can0 180#9C0A260122434F33
(1535106773.499369) can0 188#0401EF9FFFFF074F
(1535106773.500077) can0 188#0402FF5EEBBF
(1535106773.500981) can0 188#0501F7BFFFFB0708
(1535106773.501660) can0 188#05023FDFFF7F
(1535106773.502485) can0 188#0601FFFFDFFF073C
(1535106773.503269) can0 188#06027FFFF7DE
(1535106773.504090) can0 356#01000CF80CF50CF6
(1535106773.504698) can0 357#01000CF6
(1535106773.505550) can0 358#01000CF60CF60CF5
(1535106773.506158) can0 359#01000CF7
(1535106773.507014) can0 35A#01000CF80CF60CFB
(1535106773.507617) can0 35B#01000CF4
(1535106773.508525) can0 06A#0188898B8D868E8F
(1535106773.509197) can0 06B#0191
(1535106773.510157) can0 26A#013F3F3F3F3F3F3F
(1535106773.510864) can0 26B#013F
(1535106773.511697) can0 184#0701436572697A61
(1535106773.512511) can0 184#0702795F55323700
(1535106773.513304) can0 184#070340490CE40300
(1535106773.514127) can0 0C4#3B39403BFB0CF20C
(1535106773.514948) can0 0C1#0DD97FA705B60E04
(1535106773.515865) can0 0C0#350A000000080000
(1535106773.516581) can0 0C2#0000000000
(1535106773.781143) can0 305#0000000000000000
(1535106773.883910) can0 18EA0000#00EE00
(1535106773.885063) can0 18EEFF00#6400C02C0082F0C0
(1535106774.054460) can0 188#0701FB5FFFFE06EA
(1535106774.055204) can0 188#0702B6FFDFFE
(1535106774.056025) can0 188#0801FFE3FEDF0785
(1535106774.056778) can0 188#0802FFF3FFFA
(1535106774.057607) can0 35C#01000CFB0CF20CF6
(1535106774.058226) can0 35D#01000CF8
(1535106774.059056) can0 35E#01000CF50CF50CF4
(1535106774.059688) can0 35F#01000CF4
(1535106774.060588) can0 16A#0100000000000000
(1535106774.061473) can0 16C#0100000000000000
(1535106774.062299) can0 184#0801436572697A61
(1535106774.063116) can0 184#0802795F55323700
(1535106774.063917) can0 184#080340820CE40300
(1535106774.064732) can0 0C4#3B39403BFD0CEE0C
(1535106774.065567) can0 0C1#0DD97FA705B60E04
(1535106774.066482) can0 0C0#350A000000080000
(1535106774.067193) can0 0C2#0000000000
(1535106774.639551) can0 188#0101FFFF7EFE070D
(1535106774.640299) can0 188#0102FBFFFFFF
(1535106774.641103) can0 188#0201FBFBDEFE06D1
(1535106774.641800) can0 188#0202B7FDCFFF
(1535106774.642628) can0 188#03013EEDDFFF0734
(1535106774.643329) can0 188#0302FBFDBFFF
(1535106774.644169) can0 350#01000CF40CF60CF6
(1535106774.644817) can0 351#01000CF5
(1535106774.645644) can0 352#01000CF70CF30CF4
(1535106774.646263) can0 353#01000CF4
(1535106774.647109) can0 354#01000CF20CF30CF3
(1535106774.647719) can0 355#01000CF6
(1535106774.648653) can0 46A#0100FC1AFC38FB5C
(1535106774.649544) can0 46B#0100FC3EFC6FFC64
(1535106774.650482) can0 46C#0100FC6EFBAA
(1535106774.651326) can0 184#FF01FFFFFFFFFFFF
(1535106774.652169) can0 184#FF02FFFFFFFFFFFF
(1535106774.653015) can0 184#FF03FFFFFFFFFFFF
(1535106774.653853) can0 0C4#3B39F03BFB0CF20C
(1535106774.654700) can0 0C1#0DD97FA705B60E04
(1535106774.655623) can0 0C0#350A000000080000
(1535106774.656336) can0 0C2#0000000000
(1535106774.828909) can0 305#0000000000000000
(1535106774.890574) can0 18EA0000#00EE00
(1535106774.894038) can0 18EEFF00#6400C02C0082F0C0
(1535106775.209723) can0 188#0401EF9FFFFF074F
(1535106775.210440) can0 188#0402FF5EEBBF
(1535106775.211281) can0 188#0501F7BFFFFB0709
(1535106775.212021) can0 188#05023FDFFF7F
(1535106775.212844) can0 188#0601FFFFDFFF073E
(1535106775.213597) can0 188#06027FFFF7DE
(1535106775.214430) can0 356#01000CF90CF20CF6
(1535106775.215046) can0 357#01000CF4
(1535106775.215892) can0 358#01000CF70CF40CF4
(1535106775.216509) can0 359#01000CF6
(1535106775.217373) can0 35A#01000CF80CF60CF9
(1535106775.218018) can0 35B#01000CF3
(1535106775.218934) can0 56A#01FF000000000000
(1535106775.219830) can0 67A#0100072407050760
(1535106775.220678) can0 67B#01000734072F0714
(1535106775.221576) can0 67C#0100071E0775
(1535106775.222403) can0 184#0101436572697A61
(1535106775.223199) can0 184#0102795F55323700
(1535106775.224001) can0 184#0103403C0CE40300
(1535106775.224859) can0 0C4#3B39403BFA0CF10C
(1535106775.225691) can0 0C1#0DDA7FA705B60E04
(1535106775.226610) can0 0C0#350A000000080000
(1535106775.227323) can0 0C2#0000000000
(1535106775.811021) can0 188#0701FB5FFFFE06EB
(1535106775.811762) can0 188#0702B6FFDFFE
(1535106775.812585) can0 188#0801FFE3FEDF0786
(1535106775.813331) can0 188#0802FFF3FFFA
(1535106775.814159) can0 35C#01000CF50CF50CF5
(1535106775.814806) can0 35D#01000CF4
(1535106775.815649) can0 35E#01000CFA0CEF0CF6
(1535106775.816268) can0 35F#01000CF7
(1535106775.817112) can0 184#0201436572697A61
(1535106775.817915) can0 184#0202795F55323700
(1535106775.818717) can0 184#020340510CE40300
(1535106775.819535) can0 0C4#3B39403BFA0CED0C
(1535106775.820355) can0 0C1#0DDB7FA705B60E04
(1535106775.821279) can0 0C0#350A000000080000
(1535106775.821995) can0 0C2#0000000000
(1535106775.883511) can0 305#0000000000000000
(1535106775.884439) can0 18EA0000#00EE00
(1535106775.885352) can0 18EEFF00#6400C02C0082F0C0
(1535106776.090974) can0 180#9C0A260122434F33
(1535106776.370111) can0 188#0101FFFF7EFE070E
(1535106776.370840) can0 188#0102FBFFFFFF
(1535106776.371643) can0 188#0201FBFBDEFE06D1
(1535106776.372349) can0 188#0202B7FDCFFF
(1535106776.373161) can0 188#03013EEDDFFF0736
(1535106776.373869) can0 188#0302FBFDBFFF
(1535106776.374707) can0 350#01000CF30CF60CF5
(1535106776.375341) can0 351#01000CF5
(1535106776.376193) can0 352#01000CF90CF30CF2
(1535106776.376812) can0 353#01000CF3
(1535106776.377658) can0 354#01000CF30CF40CF2
(1535106776.378265) can0 355#01000CF4
(1535106776.379166) can0 76A#0100073006F20775
(1535106776.380016) can0 76B#0100076F071D0758
(1535106776.380913) can0 76C#0100070407A0
(1535106776.381726) can0 184#0301436572697A61
(1535106776.382525) can0 184#0302795F55323700
(1535106776.383322) can0 184#030340A50CE40300
(1535106776.384142) can0 0C4#3B39403BF80CF20C
(1535106776.384971) can0 0C1#0DDA7FA705B60E04
(1535106776.385889) can0 0C0#350A000000080000
(1535106776.386601) can0 0C2#0000000000
(1535106776.892966) can0 18EA0000#00EE00
(1535106776.894153) can0 18EEFF00#6400C02C0082F0C0
(1535106776.925467) can0 305#0000000000000000
(1535106776.940213) can0 188#0401EF9FFFFF0750
(1535106776.940922) can0 188#0402FF5EEBBF
(1535106776.941758) can0 188#0501F7BFFFFB0709
(1535106776.942501) can0 188#05023FDFFF7F
(1535106776.943328) can0 188#0601FFFFDFFF073D
(1535106776.944071) can0 188#06027FFFF7DE
(1535106776.944938) can0 356#01000CFA0CF50CF2
(1535106776.945532) can0 357#01000CF8
(1535106776.946377) can0 358#01000CF40CF30CF3
(1535106776.946992) can0 359#01000CF6
(1535106776.947844) can0 35A#01000CF60CF60CF8
(1535106776.948504) can0 35B#01000CF2
(1535106776.949409) can0 06A#0188898B8D868E8F
(1535106776.950085) can0 06B#0191
(1535106776.951035) can0 26A#013F3F3F3F3F3F3F
(1535106776.951731) can0 26B#013F
(1535106776.952536) can0 184#0401436572697A61
(1535106776.953336) can0 184#0402795F55323700
(1535106776.954135) can0 184#0403403F0CE40300
(1535106776.954979) can0 0C4#3B39403BF80CF00C
(1535106776.955805) can0 0C1#0DD97FA705B60E04
(1535106776.956721) can0 0C0#350A000000080000
(1535106776.957435) can0 0C2#0000000000
(1535106777.495432) can0 188#0701FB5FFFFE06EB
(1535106777.496161) can0 188#0702B6FFDFFE
(1535106777.496986) can0 188#0801FFE3FEDF0786
(1535106777.497730) can0 188#0802FFF3FFFA
(1535106777.498583) can0 35C#01000CF40CF40CF4
(1535106777.499172) can0 35D#01000CF3
(1535106777.500018) can0 35E#01000CF20CF30CF3
(1535106777.500638) can0 35F#01000CF2
(1535106777.501555) can0 16A#0100000000000000
(1535106777.502430) can0 16C#0100000000000000
(1535106777.503247) can0 184#0501436572697A61
(1535106777.504050) can0 184#0502795F55323700
(1535106777.504853) can0 184#050340700CE40300
(1535106777.505691) can0 0C4#3B39403BF70CF00C
(1535106777.506510) can0 0C1#0DDA7FA705B60E04
(1535106777.507442) can0 0C0#350A000000080000
(1535106777.508153) can0 0C2#0000000000
(1535106777.893298) can0 18EA0000#00EE00
(1535106777.894470) can0 18EEFF00#6400C02C0082F0C0
(1535106777.975837) can0 305#0000000000000000
(1535106778.080533) can0 188#0101FFFF7EFE070C
(1535106778.081254) can0 188#0102FBFFFFFF
(1535106778.082058) can0 188#0201FBFBDEFE06D1
(1535106778.082803) can0 188#0202B7FDCFFF
(1535106778.083585) can0 188#03013EEDDFFF0736
(1535106778.084281) can0 188#0302FBFDBFFF
(1535106778.085138) can0 350#01000CF70CED0CF9
(1535106778.085754) can0 351#01000CF2
(1535106778.086619) can0 352#01000CEC0CF80CF1
(1535106778.087219) can0 353#01000CEC
(1535106778.088071) can0 354#01000CF60CF20CF3
(1535106778.088678) can0 355#01000CF2
(1535106778.089591) can0 46A#0100FC5CFC2BFBE5
(1535106778.090433) can0 46B#0100FC3DFC6EFC80
(1535106778.091340) can0 46C#0100FC6DFBE7
(1535106778.092146) can0 184#0601436572697A61
(1535106778.092942) can0 184#0602795F55323700
(1535106778.093745) can0 184#060345980CE40300
(1535106778.094558) can0 0C4#3B39403BF70CF00C
(1535106778.095387) can0 0C1#0DDA7FA705B60E04
(1535106778.096309) can0 0C0#350A000000080000
(1535106778.097016) can0 0C2#0000000000
(1535106778.650681) can0 188#0401EF9FFFFF074F
(1535106778.651425) can0 188#0402FF5EEBBF
(1535106778.652244) can0 188#0501F7BFFFFB0709
(1535106778.653003) can0 188#05023FDFFF7F
(1535106778.653803) can0 188#0601FFFFDFFF073C
(1535106778.654547) can0 188#06027FFFF7DE
(1535106778.655389) can0 356#01000CF60CF20CF3
(1535106778.656004) can0 357#01000CF3
(1535106778.656864) can0 358#01000CF40CF30CF2
(1535106778.657462) can0 359#01000CF4
(1535106778.658308) can0 35A#01000CF50CF40CF6
(1535106778.658924) can0 35B#01000CF2
(1535106778.659838) can0 56A#01FF000000000000
(1535106778.660723) can0 67A#0100072407030761
(1535106778.661575) can0 67B#01000734072E0714
(1535106778.662474) can0 67C#0100071E0775
(1535106778.663284) can0 184#0701436572697A61
(1535106778.664095) can0 184#0702795F55323700
(1535106778.664893) can0 184#070340490CE40300
(1535106778.665708) can0 0C4#3B39403BFD0CEA0C
(1535106778.666544) can0 0C1#0DDA7FA705B60E04
(1535106778.667455) can0 0C0#350A000000080000
(1535106778.668178) can0 0C2#0000000000
(1535106778.885000) can0 18EA0000#00EE00
(1535106778.886056) can0 18EEFF00#6400C02C0082F0C0
(1535106779.098422) can0 305#0000000000000000
(1535106779.191813) can0 180#9C0A260122434F33
(1535106779.302417) can0 188#0701FB5FFFFE06E9
(1535106779.303170) can0 188#0702B6FFDFFE
(1535106779.303993) can0 188#0801FFE3FEDF0788
(1535106779.304737) can0 188#0802FFF3FFFA
(1535106779.305575) can0 35C#01000CF30CF20CF3
(1535106779.306190) can0 35D#01000CF3
(1535106779.307026) can0 35E#01000CF20CF30CF1
(1535106779.307672) can0 35F#01000CF3
(1535106779.308509) can0 184#0801436572697A61
(1535106779.309303) can0 184#0802795F55323700
(1535106779.310121) can0 184#080340820CE40300
(1535106779.310977) can0 0C4#3B39403BF50CF00C
(1535106779.311802) can0 0C1#0DDA7FA705B60E04
(1535106779.312861) can0 0C0#350A000000080000
(1535106779.313435) can0 0C2#0000000000
(1535106779.791007) can0 188#0101FFFF7EFE070D
(1535106779.791746) can0 188#0102FBFFFFFF
(1535106779.792551) can0 188#0201FBFBDEFE06D1
(1535106779.793254) can0 188#0202B7FDCFFF
(1535106779.794076) can0 188#03013EEDDFFF0736
(1535106779.794772) can0 188#0302FBFDBFFF
(1535106779.795613) can0 350#01000CF20CF30CF3
(1535106779.796249) can0 351#01000CF3
(1535106779.797095) can0 352#01000CF40CF70CE9
(1535106779.797713) can0 353#01000CF7
(1535106779.798560) can0 354#01000CF30CF70CE8
(1535106779.799171) can0 355#01000CFB
(1535106779.800073) can0 76A#0100073006F20775
(1535106779.800914) can0 76B#01000771071C075A
(1535106779.801811) can0 76C#0100070407A4
(1535106779.802664) can0 184#FF01FFFFFFFFFFFF
(1535106779.803957) can0 184#FF02FFFFFFFFFFFF
(1535106779.804375) can0 184#FF03FFFFFFFFFFFF
(1535106779.805201) can0 0C4#3B39F03BF80CEC0C
(1535106779.806047) can0 0C1#0DDA7FA705B60E04
(1535106779.807014) can0 0C0#350A000000080000
(1535106779.807671) can0 0C2#0000000000
(1535106779.891919) can0 18EA0000#00EE00
(1535106779.893238) can0 18EEFF00#6400C02C0082F0C0
(1535106780.150291) can0 305#0000000000000000
(1535106780.361207) can0 188#0401EF9FFFFF074F
(1535106780.361894) can0 188#0402FF5EEBBF
(1535106780.362797) can0 188#0501F7BFFFFB070A
(1535106780.363426) can0 188#05023FDFFF7F
(1535106780.364252) can0 188#0601FFFFDFFF073C
(1535106780.365001) can0 188#06027FFFF7DE
(1535106780.365857) can0 356#01000CF60CF20CF2
(1535106780.366470) can0 357#01000CF2
(1535106780.367319) can0 358#01000CF30CF20CF1
(1535106780.367943) can0 359#01000CF2
(1535106780.368834) can0 35A#01000CFA0CED0CFA
(1535106780.369400) can0 35B#01000CF1
(1535106780.370305) can0 06A#0188898B8D868E8F
(1535106780.370967) can0 06B#0191
(1535106780.371909) can0 26A#013F3F3F3F3F3F3F
(1535106780.372613) can0 26B#013F
(1535106780.373449) can0 184#0101436572697A61
(1535106780.374231) can0 184#0102795F55323700
(1535106780.375036) can0 184#0103403C0CE40300
(1535106780.375897) can0 0C4#3B39403BF60CEE0C
(1535106780.376723) can0 0C1#0DDA7FA705B60E04
(1535106780.377647) can0 0C0#350A000000080000
(1535106780.378355) can0 0C2#0000000000
(1535106780.893808) can0 18EA0000#00EE00
(1535106780.904924) can0 18EEFF00#6400C02C0082F0C0
(1535106780.916408) can0 188#0701FB5FFFFE06EB
(1535106780.917158) can0 188#0702B6FFDFFE
(1535106780.917970) can0 188#0801FFE3FEDF0786
(1535106780.918724) can0 188#0802FFF3FFFA
(1535106780.919551) can0 35C#01000CF30CF20CF2
(1535106780.920162) can0 35D#01000CF3
(1535106780.921000) can0 35E#01000CF10CF50CF0
(1535106780.921639) can0 35F#01000CF1
(1535106780.922542) can0 16A#0100000000000000
(1535106780.923424) can0 16C#0100000000000000
(1535106780.924247) can0 184#0201436572697A61
(1535106780.925049) can0 184#0202795F55323700
(1535106780.925858) can0 184#020340510CE40300
(1535106780.926652) can0 0C4#3B39403B000DED0C
(1535106780.927490) can0 0C1#0DD97FA705B60E04
(1535106780.928406) can0 0C0#350A000000080000
(1535106780.929114) can0 0C2#0000000000
(1535106781.203559) can0 305#0000000000000000
(1535106781.501556) can0 188#0101FFFF7EFE070D
(1535106781.502271) can0 188#0102FBFFFFFF
(1535106781.503080) can0 188#0201FBFBDEFE06D1
(1535106781.503786) can0 188#0202B7FDCFFF
(1535106781.504601) can0 188#03013EEDDFFF0735
(1535106781.505302) can0 188#0302FBFDBFFF
(1535106781.506137) can0 350#01000CF00CF10CF2
(1535106781.506769) can0 351#01000CF2
(1535106781.507620) can0 352#01000CF10CEF0CEE
(1535106781.508237) can0 353#01000CF0
(1535106781.509088) can0 354#01000CEE0CF10CEF
(1535106781.509701) can0 355#01000CF1
(1535106781.510595) can0 46A#0100FB84FB84FB61
(1535106781.511482) can0 46B#0100FBEDFBCDFBD3
(1535106781.512355) can0 46C#0100FBD0FB97
(1535106781.513150) can0 184#0301436572697A61
(1535106781.513958) can0 184#0302795F55323700
(1535106781.514761) can0 184#030340A50CE40300
(1535106781.515603) can0 0C4#3B39403BF70CE70C
(1535106781.516394) can0 0C1#0DD47FA705B60E04
(1535106781.517333) can0 0C0#350A000000080000
(1535106781.518037) can0 0C2#0000000000
(1535106781.891359) can0 18EA0000#00EE00
(1535106781.892525) can0 18EEFF00#6400C02C0082F0C0
(1535106782.071759) can0 188#0401EF9FFFFF0750
(1535106782.072457) can0 188#0402FF5EEBBF
(1535106782.073311) can0 188#0501F7BFFFFB0709
(1535106782.075372) can0 188#05023FDFFF7F
(1535106782.075427) can0 188#0601FFFFDFFF073C
(1535106782.075769) can0 188#06027FFFF7DE
(1535106782.076477) can0 356#01000CF20CEA0CEF
(1535106782.077156) can0 357#01000CEF
(1535106782.077981) can0 358#01000CEE0CEE0CEC
(1535106782.078599) can0 359#01000CEF
(1535106782.079445) can0 35A#01000CF00CEF0CF0
(1535106782.080059) can0 35B#01000CEA
(1535106782.080964) can0 56A#01FF000000000000
(1535106782.081870) can0 67A#0100072507050760
(1535106782.082806) can0 67B#01000734072E0714
(1535106782.083667) can0 67C#0100071E0774
(1535106782.084475) can0 184#0401436572697A61
(1535106782.085281) can0 184#0402795F55323700
(1535106782.086083) can0 184#0403403F0CE40300
(1535106782.086920) can0 0C4#3B39403BF20CEA0C
(1535106782.087746) can0 0C1#0DC97FA705B60E04
(1535106782.088672) can0 0C0#350A000000080000
(1535106782.089385) can0 0C2#0000000000
(1535106782.243789) can0 305#0000000000000000
(1535106782.292809) can0 180#9C0A260122434F33
(1535106782.632920) can0 188#0701FB5FFFFE06EB
(1535106782.633669) can0 188#0702B6FFDFFE
(1535106782.634485) can0 188#0801FFE3FEDF0787
(1535106782.635230) can0 188#0802FFF3FFFA
(1535106782.636069) can0 35C#01000CE90CF00CE5
(1535106782.636706) can0 35D#01000CEE
(1535106782.637562) can0 35E#01000CEB0CEA0CE9
(1535106782.638194) can0 35F#01000CEA
(1535106782.639027) can0 184#0501436572697A61
(1535106782.639831) can0 184#0502795F55323700
(1535106782.640628) can0 184#050340700CE40300
(1535106782.641430) can0 0C4#3B39403BF10CE20C
(1535106782.642280) can0 0C1#0DBC7FA705B60E04
(1535106782.643190) can0 0C0#350A000000080000
(1535106782.643897) can0 0C2#0000000000
(1535106782.886877) can0 18EA0000#00EE00
(1535106782.888069) can0 18EEFF00#6400C02C0082F0C0
(1535106783.268068) can0 188#0101FFFF7EFE070C
(1535106783.268801) can0 188#0102FBFFFFFF
(1535106783.269607) can0 188#0201FBFBDEFE06D1
(1535106783.270311) can0 188#0202B7FDCFFF
(1535106783.271127) can0 188#03013EEDDFFF0738
(1535106783.271826) can0 188#0302FBFDBFFF
(1535106783.272887) can0 350#01000CE90CEA0CEB
(1535106783.273271) can0 351#01000CE9
(1535106783.274120) can0 352#01000CE90CE80CE6
(1535106783.274730) can0 353#01000CE8
(1535106783.275588) can0 354#01000CE90CE90CE7
(1535106783.276193) can0 355#01000CE9
(1535106783.277100) can0 76A#0100073006F30776
(1535106783.277961) can0 76B#01000770071D0757
(1535106783.278899) can0 76C#0100070407A2
(1535106783.279721) can0 184#0601436572697A61
(1535106783.280518) can0 184#0602795F55323700
(1535106783.281322) can0 184#060345980CE40300
(1535106783.282131) can0 0C4#3B39403BF20CE20C
(1535106783.282945) can0 0C1#0DB67FA705B60E04
(1535106783.283881) can0 0C0#350A000000080000
(1535106783.284603) can0 0C2#0000000000
(1535106783.300101) can0 305#0000000000000000
(1535106783.812134) can0 188#0401EF9FFFFF074F
(1535106783.812844) can0 188#0402FF5EEBBF
(1535106783.813670) can0 188#0501F7BFFFFB070A
(1535106783.814418) can0 188#05023FDFFF7F
(1535106783.815250) can0 188#0601FFFFDFFF073C
(1535106783.815997) can0 188#06027FFFF7DE
(1535106783.816832) can0 356#01000CEC0CE80CEA
(1535106783.817452) can0 357#01000CE6
(1535106783.818288) can0 358#01000CE90CE90CE7
(1535106783.818911) can0 359#01000CEA
(1535106783.819766) can0 35A#01000CE80CEA0CEA
(1535106783.820370) can0 35B#01000CE7
(1535106783.821327) can0 06A#0188898B8D868E8F
(1535106783.821952) can0 06B#0191
(1535106783.822888) can0 26A#013F3F3F3F3F3F3F
(1535106783.823602) can0 26B#013F
(1535106783.824452) can0 184#0701436572697A61
(1535106783.825258) can0 184#0702795F55323700
(1535106783.826052) can0 184#070340490CE40300
(1535106783.826885) can0 0C4#3B39403BEC0CE50C
(1535106783.827736) can0 0C1#0DB57FA705B60E04
(1535106783.828639) can0 0C0#350A000000080000
(1535106783.829357) can0 0C2#0000000000
(1535106783.892262) can0 18EA0000#00EE00
(1535106783.893492) can0 18EEFF00#6400C02C0082F0C0
(1535106784.343957) can0 305#0000000000000000
(1535106784.367372) can0 188#0701FB5FFFFE06EB
(1535106784.368099) can0 188#0702B6FFDFFE
(1535106784.368924) can0 188#0801FFE3FEDF0786
(1535106784.369672) can0 188#0802FFF3FFFA
(1535106784.370496) can0 35C#01000CE90CE80CE8
(1535106784.371107) can0 35D#01000CE7
(1535106784.371954) can0 35E#01000CE80CE50CE6
(1535106784.372575) can0 35F#01000CE6
(1535106784.373478) can0 16A#0100000000000000
(1535106784.374366) can0 16C#0100000000000000
(1535106784.375192) can0 184#0801436572697A61
(1535106784.375979) can0 184#0802795F55323700
(1535106784.376806) can0 184#080340820CE40300
(1535106784.377615) can0 0C4#3B39403BF10CDE0C
(1535106784.378454) can0 0C1#0DB47FA705B60E04
(1535106784.379371) can0 0C0#350A000000080000
(1535106784.380095) can0 0C2#0000000000
(1535106784.887147) can0 18EA0000#00EE00
(1535106784.888527) can0 18EEFF00#6400C02C0082F0C0
(1535106784.952456) can0 188#0101FFFF7EFE070D
(1535106784.953171) can0 188#0102FBFFFFFF
(1535106784.953987) can0 188#0201FBFBDEFE06D1
(1535106784.954687) can0 188#0202B7FDCFFF
(1535106784.955503) can0 188#03013EEDDFFF0736
(1535106784.956208) can0 188#0302FBFDBFFF
(1535106784.957040) can0 350#01000CE60CE80CEC
(1535106784.957686) can0 351#01000CE8
(1535106784.958528) can0 352#01000CE80CE60CE4
(1535106784.959142) can0 353#01000CE6
(1535106784.959999) can0 354#01000CE60CE70CE7
(1535106784.960656) can0 355#01000CE7
(1535106784.961562) can0 46A#0100F882F861F79D
(1535106784.962407) can0 46B#0100F8A1F8EAF8DE
(1535106784.963307) can0 46C#0100F91DF7E0
(1535106784.964154) can0 184#FF01FFFFFFFFFFFF
(1535106784.965002) can0 184#FF02FFFFFFFFFFFF
(1535106784.965850) can0 184#FF03FFFFFFFFFFFF
(1535106784.966688) can0 0C4#3B39F03BED0CDE0C
(1535106784.967570) can0 0C1#0DB47FA705B60E04
(1535106784.968446) can0 0C0#350A000000080000
(1535106784.969161) can0 0C2#0000000000
(1535106785.393624) can0 180#9C0A260122434F33
(1535106785.394616) can0 305#0000000000000000
(1535106785.522656) can0 188#0401EF9FFFFF0751
(1535106785.523565) can0 188#0402FF5EEBBF
(1535106785.524210) can0 188#0501F7BFFFFB070A
(1535106785.524944) can0 188#05023FDFFF7F
(1535106785.525739) can0 188#0601FFFFDFFF073D
(1535106785.526481) can0 188#06027FFFF7DE
(1535106785.527317) can0 356#01000CEB0CE60CE7
(1535106785.527928) can0 357#01000CE6
(1535106785.528787) can0 358#01000CE70CE40CE7
(1535106785.529440) can0 359#01000CE8
(1535106785.530291) can0 35A#01000CE80CE80CE9
(1535106785.530906) can0 35B#01000CE6
(1535106785.531809) can0 56A#01FF000000000000
(1535106785.532785) can0 67A#0100072407050760
(1535106785.533565) can0 67B#01000736072F0714
(1535106785.534485) can0 67C#0100071E0774
(1535106785.535277) can0 184#0101436572697A61
(1535106785.536072) can0 184#0102795F55323700
(1535106785.536880) can0 184#0103403C0CE40300
(1535106785.537734) can0 0C4#3B39403BEC0CE40C
(1535106785.538564) can0 0C1#0DB47FA705B60E04
(1535106785.539493) can0 0C0#350A000000080000
(1535106785.540195) can0 0C2#0000000000
(1535106785.893300) can0 18EA0000#00EE00
(1535106785.894531) can0 18EEFF00#6400C02C0082F0C0
(1535106786.077925) can0 188#0701FB5FFFFE06EB
(1535106786.078667) can0 188#0702B6FFDFFE
(1535106786.079484) can0 188#0801FFE3FEDF0785
(1535106786.080237) can0 188#0802FFF3FFFA
(1535106786.081069) can0 35C#01000CE60CE60CE7
(1535106786.081680) can0 35D#01000CE6
(1535106786.082527) can0 35E#01000CE50CE40CE5
(1535106786.083140) can0 35F#01000CE4
(1535106786.083992) can0 184#0201436572697A61
(1535106786.084801) can0 184#0202795F55323700
(1535106786.085601) can0 184#020340510CE40300
(1535106786.086413) can0 0C4#3B39403BEF0CDE0C
(1535106786.087235) can0 0C1#0DB27FA705B60E04
(1535106786.088157) can0 0C0#350A000000080000
(1535106786.088865) can0 0C2#0000000000
(1535106786.452031) can0 305#0000000000000000
(1535106786.679013) can0 188#0101FFFF7EFE070D
(1535106786.679756) can0 188#0102FBFFFFFF
(1535106786.680571) can0 188#0201FBFBDEFE06D0
(1535106786.681344) can0 188#0202B7FDCFFF
(1535106786.682134) can0 188#03013EEDDFFF0736
(1535106786.682835) can0 188#0302FBFDBFFF
(1535106786.683677) can0 350#01000CE60CE50CE8
(1535106786.684282) can0 351#01000CE6
(1535106786.685128) can0 352#01000CE80CE50CE2
(1535106786.685750) can0 353#01000CE5
(1535106786.686594) can0 354#01000CE40CE50CE5
(1535106786.687206) can0 355#01000CE2
(1535106786.688079) can0 76A#0100073006F20776
(1535106786.688934) can0 76B#01000770071D0757
(1535106786.689830) can0 76C#0100070507A0
(1535106786.690636) can0 184#0301436572697A61
(1535106786.691440) can0 184#0302795F55323700
(1535106786.692244) can0 184#030340A50CE40300
(1535106786.693055) can0 0C4#3B39403BE90CE20C
(1535106786.693878) can0 0C1#0DB27FA705B60E04
(1535106786.694805) can0 0C0#350A000000080000
(1535106786.695519) can0 0C2#0000000000
(1535106786.887542) can0 18EA0000#00EE00
(1535106786.888722) can0 18EEFF00#6400C02C0082F0C0
(1535106787.233085) can0 188#0401EF9FFFFF074F
(1535106787.233805) can0 188#0402FF5EEBBF
(1535106787.234641) can0 188#0501F7BFFFFB0709
(1535106787.235417) can0 188#05023FDFFF7F
(1535106787.236216) can0 188#0601FFFFDFFF073E
(1535106787.236962) can0 188#06027FFFF7DE
(1535106787.237791) can0 356#01000CE80CE50CE5
(1535106787.238411) can0 357#01000CE4
(1535106787.239249) can0 358#01000CE10CE50CEA
(1535106787.239861) can0 359#01000CDE
(1535106787.240721) can0 35A#01000CE80CE70CE7
(1535106787.241322) can0 35B#01000CE4
(1535106787.242230) can0 06A#0188898B8D868E8F
(1535106787.242908) can0 06B#0191
(1535106787.243860) can0 26A#013F3F3F3F3F3F3F
(1535106787.244562) can0 26B#013F
(1535106787.245412) can0 184#0401436572697A61
(1535106787.246214) can0 184#0402795F55323700
(1535106787.247003) can0 184#0403403F0CE40300
(1535106787.247838) can0 0C4#3B39403BEE0CDE0C
(1535106787.248681) can0 0C1#0DB27FA705B60E04
(1535106787.249590) can0 0C0#350A000000080000
(1535106787.250304) can0 0C2#0000000000
(1535106787.494222) can0 305#0000000000000000
(1535106787.788410) can0 188#0701FB5FFFFE06EA
(1535106787.789128) can0 188#0702B6FFDFFE
(1535106787.789960) can0 188#0801FFE3FEDF0785
(1535106787.790704) can0 188#0802FFF3FFFA
(1535106787.791537) can0 35C#01000CEB0CDE0CE7
(1535106787.792148) can0 35D#01000CE5
(1535106787.792988) can0 35E#01000CE50CE40CE4
(1535106787.793616) can0 35F#01000CE3
(1535106787.794516) can0 16A#0100000000000000
(1535106787.795408) can0 16C#0100000000000000
(1535106787.796226) can0 184#0501436572697A61
(1535106787.797025) can0 184#0502795F55323700
(1535106787.797832) can0 184#050340700CE40300
(1535106787.798672) can0 0C4#3B39403BF00CDB0C
(1535106787.799491) can0 0C1#0DB37FA705B60E04
(1535106787.800413) can0 0C0#350A000000080000
(1535106787.801124) can0 0C2#0000000000
(1535106787.883774) can0 18EA0000#00EE00
(1535106787.884935) can0 18EEFF00#6400C02C0082F0C0
(1535106788.373501) can0 188#0101FFFF7EFE070E
(1535106788.374240) can0 188#0102FBFFFFFF
(1535106788.375048) can0 188#0201FBFBDEFE06D1
(1535106788.375747) can0 188#0202B7FDCFFF
(1535106788.376565) can0 188#03013EEDDFFF0736
(1535106788.377270) can0 188#0302FBFDBFFF
(1535106788.378104) can0 350#01000CE30CE60CE6
(1535106788.378723) can0 351#01000CE5
(1535106788.379565) can0 352#01000CE60CE30CE1
(1535106788.380181) can0 353#01000CE4
(1535106788.381035) can0 354#01000CE40CE40CE2
(1535106788.381639) can0 355#01000CE6
(1535106788.382565) can0 46A#0100F837F871F72C
(1535106788.383444) can0 46B#0100F8A7F8EBF8CF
(1535106788.384341) can0 46C#0100F93CF7BC
(1535106788.385167) can0 184#0601436572697A61
(1535106788.385978) can0 184#0602795F55323700
(1535106788.386762) can0 184#060345980CE40300
(1535106788.387578) can0 0C4#3B39403BEB0CE00C
(1535106788.388430) can0 0C1#0DB37FA705B60E04
(1535106788.389346) can0 0C0#350A000000080000
(1535106788.390062) can0 0C2#0000000000
(1535106788.494369) can0 180#9C0A260122434F33
(1535106788.545744) can0 305#0000000000000000
(1535106788.889950) can0 18EA0000#00EE00
(1535106788.891122) can0 18EEFF00#6400C02C0082F0C0
(1535106788.943578) can0 188#0401EF9FFFFF0750
(1535106788.944312) can0 188#0402FF5EEBBF
(1535106788.945139) can0 188#0501F7BFFFFB0709
(1535106788.945891) can0 188#05023FDFFF7F
(1535106788.946716) can0 188#0601FFFFDFFF073C
(1535106788.947462) can0 188#06027FFFF7DE
(1535106788.948328) can0 356#01000CE90CE40CE6
(1535106788.948935) can0 357#01000CE3
(1535106788.949780) can0 358#01000CE50CE50CE1
(1535106788.950397) can0 359#01000CE6
(1535106788.951243) can0 35A#01000CE60CE60CE6
(1535106788.951858) can0 35B#01000CE3
(1535106788.952799) can0 56A#01FF000000000000
(1535106788.953661) can0 67A#0100072407030760
(1535106788.954516) can0 67B#01000734072F0715
(1535106788.955414) can0 67C#0100071D0774
(1535106788.956224) can0 184#0701436572697A61
(1535106788.957025) can0 184#0702795F55323700
(1535106788.957827) can0 184#070340490CE40300
(1535106788.958632) can0 0C4#3B39403BF10CDA0C
(1535106788.959460) can0 0C1#0DB37FA705B60E04
(1535106788.960383) can0 0C0#350A000000080000
(1535106788.961104) can0 0C2#0000000000
(1535106789.498775) can0 188#0701FB5FFFFE06EC
(1535106789.499504) can0 188#0702B6FFDFFE
(1535106789.500349) can0 188#0801FFE3FEDF0785
(1535106789.501078) can0 188#0802FFF3FFFA
(1535106789.501911) can0 35C#01000CE60CE40CE4
(1535106789.502571) can0 35D#01000CE4
(1535106789.503441) can0 35E#01000CE40CE20CE1
(1535106789.504053) can0 35F#01000CE3
(1535106789.504891) can0 184#0801436572697A61
(1535106789.505689) can0 184#0802795F55323700
(1535106789.506521) can0 184#080340820CE40300
(1535106789.507357) can0 0C4#3B39403BE80CE00C
(1535106789.508193) can0 0C1#0DB37FA705B60E04
(1535106789.509109) can0 0C0#350A000000080000
(1535106789.509870) can0 0C2#0000000000
(1535106789.684337) can0 305#0000000000000000
(1535106789.892405) can0 18EA0000#00EE00
(1535106789.893677) can0 18EEFF00#6400C02C0082F0C0
(1535106790.090014) can0 188#0101FFFF7EFE070D
(1535106790.090714) can0 188#0102FBFFFFFF
(1535106790.091517) can0 188#0201FBFBDEFE06D3
(1535106790.092406) can0 188#0202B7FDCFFF
(1535106790.093227) can0 188#03013EEDDFFF0736
(1535106790.093734) can0 188#0302FBFDBFFF
(1535106790.094575) can0 350#01000CE30CE30CE6
(1535106790.095197) can0 351#01000CE4
(1535106790.096043) can0 352#01000CE50CE30CDF
(1535106790.096653) can0 353#01000CE3
(1535106790.097514) can0 354#01000CE70CDC0CE6
(1535106790.098126) can0 355#01000CE3
(1535106790.098998) can0 76A#0100073006F10776
(1535106790.099894) can0 76B#0100076F071D0756
(1535106790.100798) can0 76C#0100070307A3
(1535106790.101631) can0 184#FF01FFFFFFFFFFFF
(1535106790.102483) can0 184#FF02FFFFFFFFFFFF
(1535106790.103334) can0 184#FF03FFFFFFFFFFFF
(1535106790.104170) can0 0C4#3B39F03BEC0CDC0C
(1535106790.104988) can0 0C1#0DB37FA705B60E04
(1535106790.105921) can0 0C0#350A000000080000
(1535106790.106629) can0 0C2#0000000000
(1535106790.654015) can0 188#0401EF9FFFFF074F
(1535106790.654743) can0 188#0402FF5EEBBF
(1535106790.655572) can0 188#0501F7BFFFFB070A
(1535106790.656325) can0 188#05023FDFFF7F
(1535106790.657146) can0 188#0601FFFFDFFF073C
(1535106790.657895) can0 188#06027FFFF7DE
(1535106790.658747) can0 356#01000CE80CE10CE4
(1535106790.659356) can0 357#01000CE1
(1535106790.660211) can0 358#01000CE50CE50CE4
(1535106790.660817) can0 359#01000CE3
(1535106790.661663) can0 35A#01000CE60CE30CE6
(1535106790.662270) can0 35B#01000CE3
(1535106790.663185) can0 06A#0188898B8D868E8F
(1535106790.663852) can0 06B#0191
(1535106790.664795) can0 26A#013F3F3F3F3F3F3F
(1535106790.665500) can0 26B#013F
(1535106790.666356) can0 184#0101436572697A61
(1535106790.667115) can0 184#0102795F55323700
(1535106790.667919) can0 184#0103403C0CE40300
(1535106790.668773) can0 0C4#3B39403BEC0CE00C
(1535106790.669614) can0 0C1#0DB37FA705B60E04
(1535106790.670537) can0 0C0#350A000000080000
(1535106790.671230) can0 0C2#0000000000
(1535106790.737357) can0 305#0000000000000000
(1535106790.889797) can0 18EA0000#00EE00
(1535106790.890969) can0 18EEFF00#6400C02C0082F0C0
(1535106791.219303) can0 188#0701FB5FFFFE06E9
(1535106791.220032) can0 188#0702B6FFDFFE
(1535106791.220849) can0 188#0801FFE3FEDF0788
(1535106791.221603) can0 188#0802FFF3FFFA
(1535106791.222445) can0 35C#01000CE70CE60CDD
(1535106791.223064) can0 35D#01000CE9
(1535106791.223894) can0 35E#01000CE40CE10CE6
(1535106791.224522) can0 35F#01000CE3
(1535106791.225413) can0 16A#0100000000000000
(1535106791.226303) can0 16C#0100000000000000
(1535106791.227127) can0 184#0201436572697A61
(1535106791.227940) can0 184#0202795F55323700
(1535106791.228727) can0 184#020340510CE40300
(1535106791.229544) can0 0C4#3B39403BEA0CD80C
(1535106791.230365) can0 0C1#0DB57FA705B60E04
(1535106791.231290) can0 0C0#350A000000080000
(1535106791.232000) can0 0C2#0000000000
(1535106791.595330) can0 180#9C0A260122434F33
(1535106791.787067) can0 305#0000000000000000
(1535106791.804395) can0 188#0101FFFF7EFE070E
(1535106791.805128) can0 188#0102FBFFFFFF
(1535106791.805942) can0 188#0201FBFBDEFE06D2
(1535106791.806646) can0 188#0202B7FDCFFF
(1535106791.807457) can0 188#03013EEDDFFF0736
(1535106791.808169) can0 188#0302FBFDBFFF
(1535106791.808999) can0 350#01000CE40CE40CE6
(1535106791.809634) can0 351#01000CE4
(1535106791.810480) can0 352#01000CE60CE30CE0
(1535106791.811092) can0 353#01000CE3
(1535106791.811944) can0 354#01000CE20CE40CE4
(1535106791.812556) can0 355#01000CE3
(1535106791.813455) can0 46A#0100F887F899F7A3
(1535106791.814315) can0 46B#0100F8E8F8D5F8DB
(1535106791.815207) can0 46C#0100F945F809
(1535106791.816009) can0 184#0301436572697A61
(1535106791.816821) can0 184#0302795F55323700
(1535106791.817629) can0 184#030340A50CE40300
(1535106791.818433) can0 0C4#3B39403BEF0CD90C
(1535106791.819257) can0 0C1#0DB57FA705B60E04
(1535106791.820184) can0 0C0#350A000000080000
(1535106791.820902) can0 0C2#0000000000
(1535106791.892239) can0 18EA0000#00EE00
(1535106791.895687) can0 18EEFF00#6400C02C0082F0C0
(1535106792.374556) can0 188#0401EF9FFFFF0750
(1535106792.375272) can0 188#0402FF5EEBBF
(1535106792.376113) can0 188#0501F7BFFFFB0708
(1535106792.376851) can0 188#05023FDFFF7F
(1535106792.377681) can0 188#0601FFFFDFFF073D
(1535106792.378427) can0 188#06027FFFF7DE
(1535106792.379285) can0 356#01000CE70CE20CE5
(1535106792.379894) can0 357#01000CE1
(1535106792.380748) can0 358#01000CE40CE30CE1
(1535106792.381360) can0 359#01000CE5
(1535106792.382197) can0 35A#01000CE50CE60CE5
(1535106792.382828) can0 35B#01000CE2
(1535106792.383737) can0 56A#01FF000000000000
(1535106792.384630) can0 67A#0100072507030760
(1535106792.385532) can0 67B#01000733072E0716
(1535106792.386427) can0 67C#0100071E0775
(1535106792.387242) can0 184#0401436572697A61
(1535106792.388048) can0 184#0402795F55323700
(1535106792.388848) can0 184#0403403F0CE40300
(1535106792.389683) can0 0C4#3B39403BE60CE10C
(1535106792.390509) can0 0C1#0DB87FA705B60E04
(1535106792.391439) can0 0C0#350A000000080000
(1535106792.392145) can0 0C2#0000000000
(1535106792.885952) can0 18EA0000#00EE00
(1535106792.887139) can0 18EEFF00#6400C02C0082F0C0
(1535106792.918198) can0 305#0000000000000000
(1535106792.929744) can0 188#0701FB5FFFFE06EB
(1535106792.930496) can0 188#0702B6FFDFFE
(1535106792.931299) can0 188#0801FFE3FEDF0785
(1535106792.932050) can0 188#0802FFF3FFFA
(1535106792.932872) can0 35C#01000CE40CE40CE5
(1535106792.933496) can0 35D#01000CE2
(1535106792.934333) can0 35E#01000CE30CE30CE2
(1535106792.934967) can0 35F#01000CE3
(1535106792.935811) can0 184#0501436572697A61
(1535106792.936606) can0 184#0502795F55323700
(1535106792.937415) can0 184#050340700CE40300
(1535106792.938227) can0 0C4#3B39403BE90CDC0C
(1535106792.939046) can0 0C1#0DBA7FA705B60E04
(1535106792.940002) can0 0C0#350A000000080000
(1535106792.940704) can0 0C2#0000000000
(1535106793.514922) can0 188#0101FFFF7EFE070F
(1535106793.515657) can0 188#0102FBFFFFFF
(1535106793.516468) can0 188#0201FBFBDEFE06D2
(1535106793.517161) can0 188#0202B7FDCFFF
(1535106793.517989) can0 188#03013EEDDFFF0735
(1535106793.518684) can0 188#0302FBFDBFFF
(1535106793.519533) can0 350#01000CE40CE60CE6
(1535106793.520147) can0 351#01000CE4
(1535106793.520991) can0 352#01000CE50CE30CE1
(1535106793.521612) can0 353#01000CE3
(1535106793.522479) can0 354#01000CE40CE20CE2
(1535106793.523079) can0 355#01000CE4
(1535106793.524011) can0 76A#0100073006F20777
(1535106793.524831) can0 76B#01000770071D0758
(1535106793.525774) can0 76C#0100070507A3
(1535106793.526606) can0 184#0601436572697A61
(1535106793.527393) can0 184#0602795F55323700
(1535106793.528185) can0 184#060345980CE40300
(1535106793.528994) can0 0C4#3B39403BE80CE10C
(1535106793.529853) can0 0C1#0DBC7FA705B60E04
(1535106793.530777) can0 0C0#350A000000080000
(1535106793.531503) can0 0C2#0000000000
(1535106793.886754) can0 18EA0000#00EE00
(1535106793.890212) can0 18EEFF00#6400C02C0082F0C0
(1535106793.971734) can0 305#0000000000000000
(1535106794.121155) can0 188#0401EF9FFFFF0751
(1535106794.121874) can0 188#0402FF5EEBBF
(1535106794.122793) can0 188#0501F7BFFFFB0709
(1535106794.123467) can0 188#05023FDFFF7F
(1535106794.124280) can0 188#0601FFFFDFFF073C
(1535106794.125032) can0 188#06027FFFF7DE
(1535106794.125869) can0 356#01000CEB0CDF0CE5
(1535106794.126476) can0 357#01000CE7
(1535106794.127327) can0 358#01000CE60CE40CE2
(1535106794.127934) can0 359#01000CE5
(1535106794.128779) can0 35A#01000CE80CE50CE7
(1535106794.129393) can0 35B#01000CE2
(1535106794.130270) can0 06A#0188898B8D868E8F
(1535106794.130952) can0 06B#0191
(1535106794.131941) can0 26A#013F3F3F3F3F3F3F
(1535106794.132602) can0 26B#013F
(1535106794.133450) can0 184#0701436572697A61
(1535106794.134259) can0 184#0702795F55323700
(1535106794.135058) can0 184#070340490CE40300
(1535106794.135855) can0 0C4#3B39403BEB0CD70C
(1535106794.136697) can0 0C1#0DBD7FA705B60E04
(1535106794.137620) can0 0C0#350A000000080000
(1535106794.138327) can0 0C2#0000000000
(1535106794.650347) can0 188#0701FB5FFFFE06EB
(1535106794.651080) can0 188#0702B6FFDFFE
(1535106794.651898) can0 188#0801FFE3FEDF0787
(1535106794.652645) can0 188#0802FFF3FFFA
(1535106794.653469) can0 35C#01000CE60CE30CE5
(1535106794.654083) can0 35D#01000CE5
(1535106794.654926) can0 35E#01000CE50CE10CE3
(1535106794.655556) can0 35F#01000CE1
(1535106794.656454) can0 16A#0100000000000000
(1535106794.657344) can0 16C#0100000000000000
(1535106794.658169) can0 184#0801436572697A61
(1535106794.658961) can0 184#0802795F55323700
(1535106794.659774) can0 184#080340820CE40300
(1535106794.660588) can0 0C4#3B39403BEB0CD80C
(1535106794.661424) can0 0C1#0DBD7FA705B60E04
(1535106794.662343) can0 0C0#350A000000080000
(1535106794.663050) can0 0C2#0000000000
(1535106794.719939) can0 180#9C0A260122434F33
(1535106794.892254) can0 18EA0000#00EE00
(1535106794.893485) can0 18EEFF00#6400C02C0082F0C0
(1535106795.085616) can0 305#0000000000000000
(1535106795.235341) can0 188#0101FFFF7EFE070D
(1535106795.236088) can0 188#0102FBFFFFFF
(1535106795.236964) can0 188#0201FBFBDEFE06D1
(1535106795.237588) can0 188#0202B7FDCFFF
(1535106795.238411) can0 188#03013EEDDFFF0737
(1535106795.239161) can0 188#0302FBFDBFFF
(1535106795.240030) can0 350#01000CE30CE50CE7
(1535106795.240627) can0 351#01000CE3
(1535106795.241479) can0 352#01000CE50CE20CE1
(1535106795.242425) can0 353#01000CE3
(1535106795.242934) can0 354#01000CE10CE30CE2
(1535106795.243552) can0 355#01000CE4
(1535106795.244462) can0 46A#0100F944F9A4F8B3
(1535106795.245317) can0 46B#0100F9A4F9FBF9D2
(1535106795.246201) can0 46C#0100FA18F914
(1535106795.247058) can0 184#FF01FFFFFFFFFFFF
(1535106795.247899) can0 184#FF02FFFFFFFFFFFF
(1535106795.248748) can0 184#FF03FFFFFFFFFFFF
(1535106795.249586) can0 0C4#3B39F03BE80CE00C
(1535106795.250438) can0 0C1#0DBE7FA705B60E04
(1535106795.251357) can0 0C0#350A000000080000
(1535106795.252070) can0 0C2#0000000000
(1535106795.805534) can0 188#0401EF9FFFFF0750
(1535106795.806252) can0 188#0402FF5EEBBF
(1535106795.807075) can0 188#0501F7BFFFFB0709
(1535106795.807827) can0 188#05023FDFFF7F
(1535106795.808655) can0 188#0601FFFFDFFF073C
(1535106795.809398) can0 188#06027FFFF7DE
(1535106795.810249) can0 356#01000CE90CE30CE6
(1535106795.810870) can0 357#01000CE2
(1535106795.811725) can0 358#01000CE40CE50CE3
(1535106795.812333) can0 359#01000CE4
(1535106795.813176) can0 35A#01000CE70CE60CE5
(1535106795.813788) can0 35B#01000CE4
(1535106795.814716) can0 56A#01FF000000000000
(1535106795.815591) can0 67A#010007220705075F
(1535106795.816440) can0 67B#01000734072F0715
(1535106795.817345) can0 67C#0100071E0777
(1535106795.818170) can0 184#0101436572697A61
(1535106795.818972) can0 184#0102795F55323700
(1535106795.819779) can0 184#0103403C0CE40300
(1535106795.820623) can0 0C4#3B39403BED0CDC0C
(1535106795.821460) can0 0C1#0DC07FA705B60E04
(1535106795.822351) can0 0C0#350A000000080000
(1535106795.823058) can0 0C2#0000000000
(1535106795.888003) can0 18EA0000#00EE00
(1535106795.889219) can0 18EEFF00#6400C02C0082F0C0
(1535106796.140591) can0 305#0000000000000000
(1535106796.360695) can0 188#0701FB5FFFFE06EB
(1535106796.361421) can0 188#0702B6FFDFFE
(1535106796.362242) can0 188#0801FFE3FEDF0788
(1535106796.362991) can0 188#0802FFF3FFFA
(1535106796.363821) can0 35C#01000CE50CE30CE4
(1535106796.364435) can0 35D#01000CE2
(1535106796.365279) can0 35E#01000CE30CE30CE1
(1535106796.365901) can0 35F#01000CE4
(1535106796.366765) can0 184#0201436572697A61
(1535106796.367556) can0 184#0202795F55323700
(1535106796.368363) can0 184#020340510CE40300
(1535106796.369176) can0 0C4#3B39403BED0CDF0C
(1535106796.370013) can0 0C1#0DC07FA705B60E04
(1535106796.370926) can0 0C0#350A000000080000
(1535106796.371632) can0 0C2#0000000000
(1535106796.888972) can0 18EA0000#00EE00
(1535106796.890114) can0 18EEFF00#6400C02C0082F0C0
(1535106796.945816) can0 188#0101FFFF7EFE070E
(1535106796.946544) can0 188#0102FBFFFFFF
(1535106796.947359) can0 188#0201FBFBDEFE06D1
(1535106796.948061) can0 188#0202B7FDCFFF
(1535106796.948867) can0 188#03013EEDDFFF0736
(1535106796.949582) can0 188#0302FBFDBFFF
(1535106796.950406) can0 350#01000CE40CE30CE6
(1535106796.951025) can0 351#01000CE5
(1535106796.951864) can0 352#01000CE50CE30CE0
(1535106796.952482) can0 353#01000CE2
(1535106796.953345) can0 354#01000CE20CE40CE6
(1535106796.953949) can0 355#01000CE3
(1535106796.954865) can0 76A#0100073006F30777
(1535106796.955727) can0 76B#01000770071C0756
(1535106796.956598) can0 76C#0100070407A1
(1535106796.957418) can0 184#0301436572697A61
(1535106796.958214) can0 184#0302795F55323700
(1535106796.959021) can0 184#030340A50CE40300
(1535106796.959826) can0 0C4#3B39403BEB0CDD0C
(1535106796.960660) can0 0C1#0DC17FA705B60E04
(1535106796.961590) can0 0C0#350A000000080000
(1535106796.962291) can0 0C2#0000000000
(1535106797.190249) can0 305#0000000000000000
(1535106797.532083) can0 188#0401EF9FFFFF0751
(1535106797.533544) can0 188#0402FF5EEBBF
(1535106797.533607) can0 188#0501F7BFFFFB0708
(1535106797.534363) can0 188#05023FDFFF7F
(1535106797.535192) can0 188#0601FFFFDFFF073C
(1535106797.535933) can0 188#06027FFFF7DE
(1535106797.536764) can0 356#01000CE50CE30CE3
(1535106797.537380) can0 357#01000CE1
(1535106797.538243) can0 358#01000CE40CE40CE2
(1535106797.538903) can0 359#01000CE4
(1535106797.539735) can0 35A#01000CE10CEB0CDE
(1535106797.540350) can0 35B#01000CE4
(1535106797.541229) can0 06A#0188898B8D868E8F
(1535106797.541914) can0 06B#0191
(1535106797.542800) can0 26A#013F3F3F3F3F3F3F
(1535106797.543513) can0 26B#013F
(1535106797.544367) can0 184#0401436572697A61
(1535106797.545171) can0 184#0402795F55323700
(1535106797.545967) can0 184#0403403F0CE40300
(1535106797.546774) can0 0C4#3B39403BEB0CDE0C
(1535106797.547591) can0 0C1#0DBD7FA705B60E04
(1535106797.548522) can0 0C0#350A000000080000
(1535106797.549226) can0 0C2#0000000000
(1535106797.796986) can0 180#9C0A260122434F33
(1535106797.888652) can0 18EA0000#00EE00
(1535106797.889801) can0 18EEFF00#6400C02C0082F0C0
(1535106798.071189) can0 188#0701FB5FFFFE06E9
(1535106798.073169) can0 188#0702B6FFDFFE
(1535106798.073217) can0 188#0801FFE3FEDF0785
(1535106798.073481) can0 188#0802FFF3FFFA
(1535106798.074321) can0 35C#01000CE40CE30CDC
(1535106798.074919) can0 35D#01000CE1
(1535106798.075773) can0 35E#01000CE10CE10CE0
(1535106798.076430) can0 35F#01000CE0
(1535106798.077307) can0 16A#0100000000000000
(1535106798.078178) can0 16C#0100000000000000
(1535106798.079009) can0 184#0501436572697A61
(1535106798.079806) can0 184#0502795F55323700
(1535106798.080615) can0 184#050340700CE40300
(1535106798.081446) can0 0C4#3B39403BE60CDE0C
(1535106798.082270) can0 0C1#0DBA7FA705B60E04
(1535106798.083203) can0 0C0#350A000000080000
(1535106798.083906) can0 0C2#0000000000
(1535106798.237207) can0 305#0000000000000000
(1535106798.656374) can0 188#0101FFFF7EFE070C
(1535106798.657134) can0 188#0102FBFFFFFF
(1535106798.657923) can0 188#0201FBFBDEFE06D2
(1535106798.658625) can0 188#0202B7FDCFFF
(1535106798.659450) can0 188#03013EEDDFFF0737
(1535106798.660199) can0 188#0302FBFDBFFF
(1535106798.661059) can0 350#01000CE00CE20CE3
(1535106798.661661) can0 351#01000CE0
(1535106798.662518) can0 352#01000CE40CDF0CDE
(1535106798.663124) can0 353#01000CE0
(1535106798.663987) can0 354#01000CE10CE00CE0
(1535106798.664641) can0 355#01000CE2
(1535106798.665658) can0 46A#0100F8B9F900F7FC
(1535106798.666402) can0 46B#0100F8F2F945F928
(1535106798.667342) can0 46C#0100F973F837
(1535106798.668159) can0 184#0601436572697A61
(1535106798.668961) can0 184#0602795F55323700
(1535106798.669759) can0 184#060345980CE40300
(1535106798.670574) can0 0C4#3B39403BE50CDF0C
(1535106798.671416) can0 0C1#0DB77FA705B60E04
(1535106798.672339) can0 0C0#350A000000080000
(1535106798.673049) can0 0C2#0000000000
(1535106798.885279) can0 18EA0000#00EE00
(1535106798.886411) can0 18EEFF00#6400C02C0082F0C0
(1535106799.226532) can0 188#0401EF9FFFFF0750
(1535106799.227240) can0 188#0402FF5EEBBF
(1535106799.228071) can0 188#0501F7BFFFFB0709
(1535106799.228828) can0 188#05023FDFFF7F
(1535106799.229644) can0 188#0601FFFFDFFF073E
(1535106799.230393) can0 188#06027FFFF7DE
(1535106799.231258) can0 356#01000CE50CE00CE2
(1535106799.231871) can0 357#01000CDE
(1535106799.232794) can0 358#01000CE10CE10CE1
(1535106799.233330) can0 359#01000CE2
(1535106799.234166) can0 35A#01000CE40CE10CE3
(1535106799.234784) can0 35B#01000CDE
(1535106799.235701) can0 56A#01FF000000000000
(1535106799.236598) can0 67A#0100072407030761
(1535106799.237462) can0 67B#01000735072F0715
(1535106799.238346) can0 67C#0100071D0776
(1535106799.239158) can0 184#0701436572697A61
(1535106799.239960) can0 184#0702795F55323700
(1535106799.240757) can0 184#070340490CE40300
(1535106799.241584) can0 0C4#3B39403BE90CD90C
(1535106799.242417) can0 0C1#0DB57FA705B60E04
(1535106799.243349) can0 0C0#350A000000080000
(1535106799.244066) can0 0C2#0000000000
(1535106799.294056) can0 305#0000000000000000
(1535106799.781702) can0 188#0701FB5FFFFE06EA
(1535106799.782423) can0 188#0702B6FFDFFE
(1535106799.783241) can0 188#0801FFE3FEDF0785
(1535106799.783988) can0 188#0802FFF3FFFA
(1535106799.784824) can0 35C#01000CE20CE00CE0
(1535106799.785431) can0 35D#01000CDF
(1535106799.786279) can0 35E#01000CE10CDE0CE0
(1535106799.786901) can0 35F#01000CDF
(1535106799.787748) can0 184#0801436572697A61
(1535106799.788546) can0 184#0802795F55323700
(1535106799.789362) can0 184#080340820CE40300
(1535106799.790217) can0 0C4#3B39403BE30CDC0C
(1535106799.791041) can0 0C1#0DB47FA705B60E04
(1535106799.791977) can0 0C0#350A000000080000
(1535106799.792770) can0 0C2#0000000000
(1535106799.884211) can0 18EA0000#00EE00
(1535106799.885349) can0 18EEFF00#6400C02C0082F0C0
(1535106800.339055) can0 305#0000000000000000
(1535106800.366842) can0 188#0101FFFF7EFE070D
(1535106800.367567) can0 188#0102FBFFFFFF
(1535106800.368378) can0 188#0201FBFBDEFE06D1
(1535106800.369101) can0 188#0202B7FDCFFF
(1535106800.369903) can0 188#03013EEDDFFF0736
(1535106800.370618) can0 188#0302FBFDBFFF
(1535106800.371448) can0 350#01000CE00CE10CE2
(1535106800.372065) can0 351#01000CE1
(1535106800.372911) can0 352#01000CE00CDE0CDD
(1535106800.373515) can0 353#01000CDD
(1535106800.374383) can0 354#01000CDF0CDF0CDF
(1535106800.375040) can0 355#01000CE0
(1535106800.375940) can0 76A#0100073106F30776
(1535106800.376793) can0 76B#01000770071D0757
(1535106800.377736) can0 76C#0100070607A3
(1535106800.378581) can0 184#FF01FFFFFFFFFFFF
(1535106800.379428) can0 184#FF02FFFFFFFFFFFF
(1535106800.380288) can0 184#FF03FFFFFFFFFFFF
(1535106800.381110) can0 0C4#3B39F03BE50CDB0C
(1535106800.381965) can0 0C1#0DB37FA705B60E04
(1535106800.382887) can0 0C0#350A000000080000
(1535106800.383601) can0 0C2#0000000000
(1535106800.893506) can0 18EA0000#00EE00
(1535106800.894639) can0 18EEFF00#6400C02C0082F0C0
(1535106800.898016) can0 180#9C0A260122434F33
(1535106801.023542) can0 188#0401EF9FFFFF0750
(1535106801.024261) can0 188#0402FF5EEBBF
(1535106801.025103) can0 188#0501F7BFFFFB070A
(1535106801.025818) can0 188#05023FDFFF7F
(1535106801.026619) can0 188#0601FFFFDFFF073D
(1535106801.027362) can0 188#06027FFFF7DE
(1535106801.028195) can0 356#01000CE40CDE0CE1
(1535106801.028903) can0 357#01000CDC
(1535106801.029669) can0 358#01000CE10CDF0CDF
(1535106801.030326) can0 359#01000CE1
(1535106801.031166) can0 35A#01000CE10CE20CE1
(1535106801.031794) can0 35B#01000CDF
(1535106801.032767) can0 06A#0188898B8D868E8F
(1535106801.033385) can0 06B#0191
(1535106801.034323) can0 26A#013F3F3F3F3F3F3F
(1535106801.035034) can0 26B#013F
(1535106801.035835) can0 184#0101436572697A61
(1535106801.036634) can0 184#0102795F55323700
(1535106801.037447) can0 184#0103403C0CE40300
(1535106801.038305) can0 0C4#3B39403BE40CDC0C
(1535106801.039125) can0 0C1#0DB47FA705B60E04
(1535106801.040046) can0 0C0#350A000000080000
(1535106801.040756) can0 0C2#0000000000
(1535106801.390079) can0 305#0000000000000000
(1535106801.492127) can0 188#0701FB5FFFFE06EA
(1535106801.492856) can0 188#0702B6FFDFFE
(1535106801.493697) can0 188#0801FFE3FEDF0785
(1535106801.494442) can0 188#0802FFF3FFFA
(1535106801.495271) can0 35C#01000CE10CDE0CE1
(1535106801.495880) can0 35D#01000CDE
(1535106801.496734) can0 35E#01000CDF0CDE0CDE
(1535106801.497351) can0 35F#01000CE1
(1535106801.498248) can0 16A#0100000000000000
(1535106801.499134) can0 16C#0100000000000000
(1535106801.499957) can0 184#0201436572697A61
(1535106801.500772) can0 184#0202795F55323700
(1535106801.501567) can0 184#020340510CE40300
(1535106801.502399) can0 0C4#3B39403BE60CDC0C
(1535106801.503230) can0 0C1#0DB57FA705B60E04
(1535106801.504150) can0 0C0#350A000000080000
(1535106801.504865) can0 0C2#0000000000
(1535106801.885166) can0 18EA0000#00EE00
(1535106801.886346) can0 18EEFF00#6400C02C0082F0C0
(1535106802.077234) can0 188#0101FFFF7EFE070F
(1535106802.077971) can0 188#0102FBFFFFFF
(1535106802.078788) can0 188#0201FBFBDEFE06D0
(1535106802.079530) can0 188#0202B7FDCFFF
(1535106802.080358) can0 188#03013EEDDFFF0736
(1535106802.081057) can0 188#0302FBFDBFFF
(1535106802.081929) can0 350#01000CDF0CE00CE2
(1535106802.082597) can0 351#01000CDF
(1535106802.083440) can0 352#01000CE00CD80CDB
(1535106802.084085) can0 353#01000CDE
(1535106802.084915) can0 354#01000CDD0CE00CE0
(1535106802.085575) can0 355#01000CE0
(1535106802.086493) can0 46A#0100F85DF8B1F784
(1535106802.087368) can0 46B#0100F8A8F90AF8F3
(1535106802.088223) can0 46C#0100F935F7F6
(1535106802.089019) can0 184#0301436572697A61
(1535106802.089829) can0 184#0302795F55323700
(1535106802.090628) can0 184#030340A50CE40300
(1535106802.091433) can0 0C4#3B39403BE30CDD0C
(1535106802.092288) can0 0C1#0DB47FA705B60E04
(1535106802.093215) can0 0C0#350A000000080000
(1535106802.093933) can0 0C2#0000000000
(1535106802.439333) can0 305#0000000000000000
(1535106802.647381) can0 188#0401EF9FFFFF0751
(1535106802.648094) can0 188#0402FF5EEBBF
(1535106802.648925) can0 188#0501F7BFFFFB0709
(1535106802.649676) can0 188#05023FDFFF7F
(1535106802.650507) can0 188#0601FFFFDFFF073E
(1535106802.651249) can0 188#06027FFFF7DE
(1535106802.652081) can0 356#01000CEF0CEA0CF0
(1535106802.652787) can0 357#01000CF0
(1535106802.653565) can0 358#01000CF20CF10CF1
(1535106802.654172) can0 359#01000CF1
(1535106802.655022) can0 35A#01000CEC0CE60CEF
(1535106802.655620) can0 35B#01000CE4
(1535106802.656537) can0 56A#01FF000000000000
(1535106802.657435) can0 67A#0100072407040760
(1535106802.658328) can0 67B#0100073407300714
(1535106802.659229) can0 67C#0100071E0774
(1535106802.660047) can0 184#0401436572697A61
(1535106802.660846) can0 184#0402795F55323700
(1535106802.661650) can0 184#0403403F0CE40300
(1535106802.662459) can0 0C4#3B39403BEF0CD90C
(1535106802.663284) can0 0C1#0DCB7FA705B60E04
(1535106802.664214) can0 0C0#350A000000080000
(1535106802.664922) can0 0C2#0000000000
(1535106802.888038) can0 18EA0000#00EE00
(1535106802.889199) can0 18EEFF00#6400C02C0082F0C0
(1535106803.202613) can0 188#0701FB5FFFFE06EC
(1535106803.203344) can0 188#0702B6FFDFFE
(1535106803.204172) can0 188#0801FFE3FEDF0786
(1535106803.204954) can0 188#0802FFF3FFFA
(1535106803.205738) can0 35C#01000CF30CF30CF4
(1535106803.206360) can0 35D#01000CF3
(1535106803.207202) can0 35E#01000CF20CF30CF3
(1535106803.207824) can0 35F#01000CF2
(1535106803.208673) can0 184#0501436572697A61
(1535106803.209479) can0 184#0502795F55323700
(1535106803.210278) can0 184#050340700CE40300
(1535106803.211124) can0 0C4#3B39403BF70CF00C
(1535106803.211908) can0 0C1#0D1380A705B60E04
(1535106803.212859) can0 0C0#350A000000080000
(1535106803.213584) can0 0C2#0000000000
(1535106803.557026) can0 305#0000000000000000
(1535106803.787696) can0 188#0101FFFF7EFE070D
(1535106803.788430) can0 188#0102FBFFFFFF
(1535106803.789230) can0 188#0201FBFBDEFE06D1
(1535106803.789931) can0 188#0202B7FDCFFF
(1535106803.790752) can0 188#03013EEDDFFF0736
(1535106803.791451) can0 188#0302FBFDBFFF
(1535106803.792284) can0 350#01000CF40CF30CF5
(1535106803.792930) can0 351#01000CF3
(1535106803.793775) can0 352#01000CF50CF30CF3
(1535106803.794386) can0 353#01000CF3
(1535106803.795246) can0 354#01000CF20CF40CF3
(1535106803.795848) can0 355#01000CF4
(1535106803.796770) can0 76A#0100073106F30775
(1535106803.797610) can0 76B#01000770071E0757
(1535106803.798496) can0 76C#0100070407A2
(1535106803.799313) can0 184#0601436572697A61
(1535106803.800115) can0 184#0602795F55323700
(1535106803.800913) can0 184#060345980CE40300
(1535106803.801724) can0 0C4#3B39403BF80CF20C
(1535106803.802554) can0 0C1#0D1580A705B60E04
(1535106803.803476) can0 0C0#350A000000080000
(1535106803.804186) can0 0C2#0000000000
(1535106803.885457) can0 18EA0000#00EE00
(1535106803.886499) can0 18EEFF00#6400C02C0082F0C0
(1535106803.998723) can0 180#9C0A260122434F33
(1535106804.357844) can0 188#0401EF9FFFFF0750
(1535106804.358569) can0 188#0402FF5EEBBF
(1535106804.359394) can0 188#0501F7BFFFFB070A
(1535106804.360147) can0 188#05023FDFFF7F
(1535106804.360970) can0 188#0601FFFFDFFF073C
(1535106804.361745) can0 188#06027FFFF7DE
(1535106804.362558) can0 356#01000CF60CF60CF6
(1535106804.363190) can0 357#01000CF4
(1535106804.364022) can0 358#01000CF40CF50CF4
(1535106804.364634) can0 359#01000CF5
(1535106804.365491) can0 35A#01000CF80CF80CFA
(1535106804.366139) can0 35B#01000CF5
(1535106804.367051) can0 06A#0188898B8D868E8F
(1535106804.367733) can0 06B#0191
(1535106804.368677) can0 26A#013F3F3F3F3F3F3F
(1535106804.369374) can0 26B#013F
(1535106804.370178) can0 184#0701436572697A61
(1535106804.370992) can0 184#0702795F55323700
(1535106804.371785) can0 184#070340490CE40300
(1535106804.372617) can0 0C4#3B39403BFA0CF20C
(1535106804.373441) can0 0C1#0D1680A705B60E04
(1535106804.374372) can0 0C0#350A000000080000
(1535106804.375078) can0 0C2#0000000000
(1535106804.604625) can0 305#0000000000000000
(1535106804.887429) can0 18EA0000#00EE00
(1535106804.888612) can0 18EEFF00#6400C02C0082F0C0
(1535106804.959165) can0 188#0701FB5FFFFE06EA
(1535106804.959884) can0 188#0702B6FFDFFE
(1535106804.960703) can0 188#0801FFE3FEDF0787
(1535106804.961455) can0 188#0802FFF3FFFA
(1535106804.962292) can0 35C#01000CF60CF50CF8
(1535106804.962898) can0 35D#01000CF5
(1535106804.963752) can0 35E#01000CF60CF60CF7
(1535106804.964366) can0 35F#01000CF6
(1535106804.965269) can0 16A#0100000000000000
(1535106804.966157) can0 16C#0100000000000000
(1535106804.966978) can0 184#0801436572697A61
(1535106804.967778) can0 184#0802795F55323700
(1535106804.968593) can0 184#080340820CE40300
(1535106804.969433) can0 0C4#3B39403BFB0CF30C
(1535106804.970266) can0 0C1#0D1780A705B60E04
(1535106804.971200) can0 0C0#350A000000080000
(1535106804.971907) can0 0C2#0000000000
(1535106805.518242) can0 188#0101FFFF7EFE070E
(1535106805.518989) can0 188#0102FBFFFFFF
(1535106805.519781) can0 188#0201FBFBDEFE06D2
(1535106805.520479) can0 188#0202B7FDCFFF
(1535106805.521298) can0 188#03013EEDDFFF0736
(1535106805.521998) can0 188#0302FBFDBFFF
(1535106805.522832) can0 350#01000CF60CF60CF6
(1535106805.523476) can0 351#01000CF6
(1535106805.524320) can0 352#01000CF70CF60CF6
(1535106805.524932) can0 353#01000CF4
(1535106805.525788) can0 354#01000CF50CF60CF5
(1535106805.526393) can0 355#01000CF6
(1535106805.527306) can0 46A#01000259025F02B2
(1535106805.528155) can0 46B#01000209021E022A
(1535106805.529049) can0 46C#010001F40299
(1535106805.529893) can0 184#FF01FFFFFFFFFFFF
(1535106805.530738) can0 184#FF02FFFFFFFFFFFF
(1535106805.531583) can0 184#FF03FFFFFFFFFFFF
(1535106805.532425) can0 0C4#3B39F03BF90CF40C
(1535106805.533261) can0 0C1#0D1780A705B60E04
(1535106805.534186) can0 0C0#350A000000080000
(1535106805.534900) can0 0C2#0000000000
(1535106805.656684) can0 305#0000000000000000
(1535106805.889067) can0 18EA0000#00EE00
(1535106805.890244) can0 18EEFF00#6400C02C0082F0C0
(1535106806.088437) can0 188#0401EF9FFFFF0750
(1535106806.091254) can0 188#0402FF5EEBBF
(1535106806.091334) can0 188#0501F7BFFFFB0709
(1535106806.091354) can0 188#05023FDFFF7F
(1535106806.091773) can0 188#0601FFFFDFFF073D
(1535106806.092448) can0 188#06027FFFF7DE
(1535106806.093166) can0 356#01000CF70CF80CF7
(1535106806.093778) can0 357#01000CF6
(1535106806.094643) can0 358#01000CF70CF70CF7
(1535106806.095231) can0 359#01000CF7
(1535106806.096098) can0 35A#01000CFA0CFA0CFC
(1535106806.096750) can0 35B#01000CF6
(1535106806.097661) can0 56A#01FF000000000000
(1535106806.098555) can0 67A#0100072407040762
(1535106806.099464) can0 67B#01000735072F0715
(1535106806.100368) can0 67C#0100071F0774
(1535106806.101192) can0 184#0101436572697A61
(1535106806.101987) can0 184#0102795F55323700
(1535106806.102834) can0 184#0103403C0CE40300
(1535106806.103622) can0 0C4#3B39403BFC0CF50C
(1535106806.104450) can0 0C1#0D1880A705B60E04
(1535106806.105361) can0 0C0#350A000000080000
(1535106806.106075) can0 0C2#0000000000
(1535106806.643606) can0 188#0701FB5FFFFE06EB
(1535106806.644357) can0 188#0702B6FFDFFE
(1535106806.645176) can0 188#0801FFE3FEDF0789
(1535106806.645924) can0 188#0802FFF3FFFA
(1535106806.646757) can0 35C#01000CF70CF60CFA
(1535106806.647414) can0 35D#01000CF5
(1535106806.648270) can0 35E#01000CF50CF90CF8
(1535106806.648891) can0 35F#01000CF8
(1535106806.649735) can0 184#0201436572697A61
(1535106806.650540) can0 184#0202795F55323700
(1535106806.651337) can0 184#020340510CE40300
(1535106806.652151) can0 0C4#3B39403BFC0CF40C
(1535106806.652967) can0 0C1#0D1880A705B60E04
(1535106806.653900) can0 0C0#350A000000080000
(1535106806.654608) can0 0C2#0000000000
(1535106806.707399) can0 305#0000000000000000
(1535106806.894500) can0 18EA0000#00EE00
(1535106806.897325) can0 18EEFF00#6400C02C0082F0C0
(1535106807.099670) can0 180#9C0A260122434F33
(1535106807.228693) can0 188#0101FFFF7EFE070E
(1535106807.229422) can0 188#0102FBFFFFFF
(1535106807.230229) can0 188#0201FBFBDEFE06D2
(1535106807.230933) can0 188#0202B7FDCFFF
(1535106807.231758) can0 188#03013EEDDFFF0736
(1535106807.239474) can0 188#0302FBFDBFFF
(1535106807.239538) can0 350#01000CF80CF80CF7
(1535106807.239555) can0 351#01000CF8
(1535106807.239569) can0 352#01000CFA0CF80CF7
(1535106807.239583) can0 353#01000CF6
(1535106807.239598) can0 354#01000CF60CF70CF7
(1535106807.239612) can0 355#01000CF7
(1535106807.239645) can0 76A#0100073006F40774
(1535106807.239661) can0 76B#01000770071D0758
(1535106807.239676) can0 76C#0100070507A1
(1535106807.240381) can0 184#0301436572697A61
(1535106807.241172) can0 184#0302795F55323700
(1535106807.241977) can0 184#030340A50CE40300
(1535106807.242801) can0 0C4#3B39403BFD0CF60C
(1535106807.243638) can0 0C1#0D1A80A705B60E04
(1535106807.244557) can0 0C0#350A000000080000
(1535106807.245272) can0 0C2#0000000000
(1535106807.758980) can0 305#0000000000000000
(1535106807.798919) can0 188#0401EF9FFFFF074F
(1535106807.799637) can0 188#0402FF5EEBBF
(1535106807.800466) can0 188#0501F7BFFFFB0709
(1535106807.801209) can0 188#05023FDFFF7F
(1535106807.802043) can0 188#0601FFFFDFFF073E
(1535106807.803223) can0 188#06027FFFF7DE
(1535106807.803659) can0 356#01000CF90CF80CF8
(1535106807.804313) can0 357#01000CF8
(1535106807.805173) can0 358#01000CF80CF90CF8
(1535106807.805832) can0 359#01000CF8
(1535106807.806686) can0 35A#01000CFB0CFA0CFC
(1535106807.807347) can0 35B#01000CF8
(1535106807.808238) can0 06A#0188898A8D868E8F
(1535106807.808940) can0 06B#0191
(1535106807.809877) can0 26A#013F3F3F3F3F3F3F
(1535106807.810577) can0 26B#013F
(1535106807.811376) can0 184#0401436572697A61
(1535106807.812178) can0 184#0402795F55323700
(1535106807.812968) can0 184#0403403F0CE40300
(1535106807.813812) can0 0C4#3B39403BFC0CF60C
(1535106807.814644) can0 0C1#0D1880A705B60E04
(1535106807.815566) can0 0C0#350A000000080000
(1535106807.816271) can0 0C2#0000000000
(1535106807.889616) can0 18EA0000#00EE00
(1535106807.891104) can0 18EEFF00#6400C02C0082F0C0
(1535106808.370114) can0 188#0701FB5FFFFE06EC
(1535106808.370845) can0 188#0702B6FFDFFE
(1535106808.371660) can0 188#0801FFE3FEDF0785
(1535106808.372410) can0 188#0802FFF3FFFA
(1535106808.373249) can0 35C#01000CF60CF80CFA
(1535106808.373882) can0 35D#01000CF7
(1535106808.374740) can0 35E#01000CF80CF90CF9
(1535106808.375409) can0 35F#01000CF8
(1535106808.376299) can0 16A#0100000000000000
(1535106808.377191) can0 16C#0100000000000000
(1535106808.378009) can0 184#0501436572697A61
(1535106808.378805) can0 184#0502795F55323700
(1535106808.379621) can0 184#050340700CE40300
(1535106808.380470) can0 0C4#3B39403BFD0CF50C
(1535106808.381307) can0 0C1#0D1680A705B60E04
(1535106808.382226) can0 0C0#350A000000080000
(1535106808.382944) can0 0C2#0000000000
