(1536005358.823674) can0 188#0101FFFB7EFE0861
(1536005358.824401) can0 188#0102FBFFFFFF
(1536005358.825223) can0 188#0201FBFBDEFE0819
(1536005358.825936) can0 188#020237FDCDFF
(1536005358.826759) can0 188#03013CE9DFFF0953
(1536005358.827487) can0 188#0302FBFDB7FB
(1536005358.828375) can0 350#01000CFE0CFE0CFE
(1536005358.828989) can0 351#01000CFE
(1536005358.829862) can0 352#01000CFF0CFE0CFC
(1536005358.830485) can0 353#01000CFD
(1536005358.831354) can0 354#01000CFC0CFE0CFD
(1536005358.831976) can0 355#01000CFF
(1536005358.832882) can0 76A#01000871082E0973
(1536005358.833756) can0 76B#01000891098E09B7
(1536005358.834660) can0 76C#0100085C09CD
(1536005358.835488) can0 184#0301436572697A61
(1536005358.836304) can0 184#0302795F55323700
(1536005358.837123) can0 184#030340A50CE40300
(1536005358.837982) can0 0C4#413C4040020DFB0C
(1536005358.838827) can0 0C1#0DF07FA705B60E04
(1536005358.839750) can0 0C0#520A000000080000
(1536005358.840430) can0 0C2#0000000000
(1536005359.264159) can0 180#9C0A260122434F33
(1536005359.393847) can0 188#0401EF9FFFF70869
(1536005359.394554) can0 188#0402FF56EBFF
(1536005359.395381) can0 188#0501B7BFFEFB097E
(1536005359.396097) can0 188#05023DDFFF7F
(1536005359.396936) can0 188#0601FFFFDFFF099B
(1536005359.397650) can0 188#06027FF7F7DE
(1536005359.398541) can0 356#01000D020CFE0D00
(1536005359.399204) can0 357#01000CFF
(1536005359.400081) can0 358#01000CFF0CFF0CFE
(1536005359.400694) can0 359#01000CFF
(1536005359.401566) can0 35A#01000D030CFF0D03
(1536005359.402186) can0 35B#01000D01
(1536005359.403100) can0 06A#01DAE1D5D1D6E4DF
(1536005359.404698) can0 06B#01E1
(1536005359.404740) can0 26A#013F3F3F3F3F3F3F
(1536005359.405378) can0 26B#013F
(1536005359.406172) can0 184#0401436572697A61
(1536005359.407014) can0 184#0402795F55323700
(1536005359.407814) can0 184#0403403F0CE40300
(1536005359.408649) can0 0C4#413C4040020DFC0C
(1536005359.409489) can0 0C1#0DF07FA705B60E04
(1536005359.410420) can0 0C0#520A000000080000
(1536005359.411092) can0 0C2#0000000000
(1536005359.948782) can0 188#0701FB5FFFFE0843
(1536005359.949479) can0 188#0702B6FFDFFE
(1536005359.950317) can0 188#0801FFEBFEDF09B9
(1536005359.951026) can0 188#0802FFF3FFFA
(1536005359.951915) can0 35C#01000CFE0CFE0D00
(1536005359.952560) can0 35D#01000CFF
(1536005359.953417) can0 35E#01000CFF0CFE0CFD
(1536005359.954061) can0 35F#01000CFE
(1536005359.954963) can0 16A#0100000000000000
(1536005359.955870) can0 16C#0100000000000000
(1536005359.956707) can0 184#0501436572697A61
(1536005359.957517) can0 184#0502795F55323700
(1536005359.958352) can0 184#050340700CE40300
(1536005359.959182) can0 0C4#413C4040020DFC0C
(1536005359.960018) can0 0C1#0DF07FA705B60E04
(1536005359.960948) can0 0C0#520A000000080000
(1536005359.961627) can0 0C2#0000000000
(1536005360.550547) can0 188#0101FFFB7EFE0861
(1536005360.551285) can0 188#0102FBFFFFFF
(1536005360.552110) can0 188#0201FBFBDEFE0819
(1536005360.552819) can0 188#020237FDCDFF
(1536005360.553656) can0 188#03013CE9DFFF0954
(1536005360.554383) can0 188#0302FBFDB7FB
(1536005360.555249) can0 350#01000CFE0CFE0CFF
(1536005360.555908) can0 351#01000CFE
(1536005360.556770) can0 352#01000D000CFD0CFC
(1536005360.557397) can0 353#01000CFD
(1536005360.558264) can0 354#01000CFD0CFE0CFD
(1536005360.558883) can0 355#01000CFE
(1536005360.559811) can0 46A#0100FE7CFE81FE1B
(1536005360.560674) can0 46B#0100FE7CFE5AFE5C
(1536005360.561592) can0 46C#0100FE91FE37
(1536005360.562425) can0 184#0601436572697A61
(1536005360.563230) can0 184#0602795F55323700
(1536005360.564055) can0 184#060345980CE40300
(1536005360.564892) can0 0C4#413C4040020DFC0C
(1536005360.565730) can0 0C1#0DF07FA705B60E04
(1536005360.566653) can0 0C0#520A000000080000
(1536005360.567323) can0 0C2#0000000000
(1536005361.104298) can0 188#0401EF9FFFF70869
(1536005361.104985) can0 188#0402FF56EBFF
(1536005361.105867) can0 188#0501B7BFFEFB097D
(1536005361.106533) can0 188#05023DDFFF7F
(1536005361.107394) can0 188#0601FFFFDFFF099A
(1536005361.108092) can0 188#06027FF7F7DE
(1536005361.108973) can0 356#01000D020D000CFF
(1536005361.109587) can0 357#01000CFE
(1536005361.110491) can0 358#01000CFF0CFF0CFF
(1536005361.111073) can0 359#01000CFF
(1536005361.111947) can0 35A#01000D000D000D02
(1536005361.112571) can0 35B#01000CFF
(1536005361.113495) can0 56A#01FF000000000000
(1536005361.114407) can0 67A#01000846081E095F
(1536005361.115271) can0 67B#0100082D09770951
(1536005361.116194) can0 67C#0100083D0983
(1536005361.117012) can0 184#0701436572697A61
(1536005361.117831) can0 184#0702795F55323700
(1536005361.118693) can0 184#070340490CE40300
(1536005361.119504) can0 0C4#413C4040020DFC0C
(1536005361.120338) can0 0C1#0DF07FA705B60E04
(1536005361.121283) can0 0C0#520A000000080000
(1536005361.121941) can0 0C2#0000000000
(1536005361.659224) can0 188#0701FB5FFFFE0842
(1536005361.659918) can0 188#0702B6FFDFFE
(1536005361.660746) can0 188#0801FFEBFEDF09BA
(1536005361.661464) can0 188#0802FFF3FFFA
(1536005361.662312) can0 35C#01000CFF0CFD0D00
(1536005361.662935) can0 35D#01000CFD
(1536005361.663810) can0 35E#01000CFF0CFE0CFE
(1536005361.664443) can0 35F#01000CFF
(1536005361.665307) can0 184#0801436572697A61
(1536005361.666112) can0 184#0802795F55323700
(1536005361.666943) can0 184#080340820CE40300
(1536005361.667763) can0 0C4#413C4040020DFC0C
(1536005361.668601) can0 0C1#0DF07FA705B60E04
(1536005361.669526) can0 0C0#520A000000080000
(1536005361.670204) can0 0C2#0000000000
(1536005362.244694) can0 188#0101FFFB7EFE0861
(1536005362.245450) can0 188#0102FBFFFFFF
(1536005362.246277) can0 188#0201FBFBDEFE0819
(1536005362.247008) can0 188#020237FDCDFF
(1536005362.247816) can0 188#03013CE9DFFF0953
(1536005362.248538) can0 188#0302FBFDB7FB
(1536005362.249401) can0 350#01000CFE0CFF0D00
(1536005362.250030) can0 351#01000CFE
(1536005362.250894) can0 352#01000CFF0CFE0CFC
(1536005362.251508) can0 353#01000CFC
(1536005362.252384) can0 354#01000CFF0CFE0CFC
(1536005362.253088) can0 355#01000CFF
(1536005362.253917) can0 76A#0100086E082C0974
(1536005362.254767) can0 76B#01000891098F09B6
(1536005362.255686) can0 76C#0100085B09CD
(1536005362.256552) can0 184#FF01FFFFFFFFFFFF
(1536005362.257413) can0 184#FF02FFFFFFFFFFFF
(1536005362.258285) can0 184#FF03FFFFFFFFFFFF
(1536005362.259109) can0 0C4#413CF040030DFC0C
(1536005362.259951) can0 0C1#0DF07FA705B60E04
(1536005362.260882) can0 0C0#520A000000080000
(1536005362.261559) can0 0C2#0000000000
(1536005362.365221) can0 180#9C0A260122434F33
(1536005362.814863) can0 188#0401EF9FFFF70868
(1536005362.815545) can0 188#0402FF56EBFF
(1536005362.816379) can0 188#0501B7BFFEFB097C
(1536005362.817092) can0 188#05023DDFFF7F
(1536005362.817930) can0 188#0601FFFFDFFF099C
(1536005362.818662) can0 188#06027FF7F7DE
(1536005362.819515) can0 356#01000D010CFF0CFF
(1536005362.820141) can0 357#01000CFE
(1536005362.821010) can0 358#01000CFF0CFF0CFE
(1536005362.821628) can0 359#01000CFF
(1536005362.822504) can0 35A#01000D000D000D01
(1536005362.823131) can0 35B#01000CFF
(1536005362.824044) can0 06A#01DAE1D5D1D6E4DF
(1536005362.824730) can0 06B#01E1
(1536005362.825635) can0 26A#013F3F3F3F3F3F3F
(1536005362.826302) can0 26B#013F
(1536005362.827118) can0 184#0101436572697A61
(1536005362.827932) can0 184#0102795F55323700
(1536005362.828755) can0 184#0103403C0CE40300
(1536005362.829578) can0 0C4#413C4040010DFC0C
(1536005362.830421) can0 0C1#0DF07FA705B60E04
(1536005362.831363) can0 0C0#520A000000080000
(1536005362.832029) can0 0C2#0000000000
(1536005363.369759) can0 188#0701FB5FFFFE0843
(1536005363.370434) can0 188#0702B6FFDFFE
(1536005363.371272) can0 188#0801FFEBFEDF09BA
(1536005363.371980) can0 188#0802FFF3FFFA
(1536005363.372836) can0 35C#01000CFF0CFD0CFF
(1536005363.373462) can0 35D#01000CFE
(1536005363.374327) can0 35E#01000CFE0CFE0CFE
(1536005363.374957) can0 35F#01000CFF
(1536005363.375858) can0 16A#0100000000000000
(1536005363.376761) can0 16C#0100000000000000
(1536005363.377604) can0 184#0201436572697A61
(1536005363.378420) can0 184#0202795F55323700
(1536005363.379240) can0 184#020340510CE40300
(1536005363.381785) can0 0C4#413C4040020DFB0C
(1536005363.381825) can0 0C1#0DF07FA705B60E04
(1536005363.381836) can0 0C0#520A000000080000
(1536005363.382539) can0 0C2#0000000000
(1536005363.961470) can0 188#0101FFFB7EFE0861
(1536005363.962193) can0 188#0102FBFFFFFF
(1536005363.963482) can0 188#0201FBFBDEFE0819
(1536005363.963733) can0 188#020237FDCDFF
(1536005363.964568) can0 188#03013CE9DFFF0952
(1536005363.965292) can0 188#0302FBFDB7FB
(1536005363.966153) can0 350#01000CFD0D010CFF
(1536005363.966766) can0 351#01000CFE
(1536005363.967648) can0 352#01000D000CFE0CFC
(1536005363.968317) can0 353#01000CFC
(1536005363.969193) can0 354#01000CFD0CFD0CFD
(1536005363.969819) can0 355#01000CFF
(1536005363.970735) can0 46A#0100FE7BFE7CFE1E
(1536005363.971603) can0 46B#0100FE81FE5FFE5A
