(1536064744.614568) can0 188#0101FFFB7EFE07D5
(1536064744.615334) can0 188#0102FBFFFFFF
(1536064744.616125) can0 188#0201FBFBDEFE0788
(1536064744.616829) can0 188#020237FDCDFF
(1536064744.617659) can0 188#03013CE9DFFF082D
(1536064744.618373) can0 188#0302FBFDB7FB
(1536064744.619239) can0 350#01000E470E370E54
(1536064744.619862) can0 351#01000E4A
(1536064744.620717) can0 352#01000E2B0E4C0E4F
(1536064744.621342) can0 353#01000E4B
(1536064744.622187) can0 354#01000E3C0E360E58
(1536064744.622807) can0 355#01000E59
(1536064744.623736) can0 46A#01000068007F005D
(1536064744.624647) can0 46B#0100006C004B004F
(1536064744.625542) can0 46C#01000052004E
(1536064744.626367) can0 184#0601436572697A61
(1536064744.627210) can0 184#0602795F55323700
(1536064744.627995) can0 184#060345980CE40300
(1536064744.628836) can0 0C4#3D3B403E5A0E2B0E
(1536064744.629686) can0 0C1#0E03801105920E00
(1536064744.630614) can0 0C0#630A000000080000
(1536064744.631346) can0 0C2#0000000000
(1536064744.745918) can0 180#9C0A260122434F33
(1536064745.184833) can0 188#0401EF9FFFF707DB
(1536064745.185585) can0 188#0402FF56EBFF
(1536064745.186363) can0 188#0501B7BFFEFB085C
(1536064745.187075) can0 188#05023DDFFF7F
(1536064745.187936) can0 188#0601FFFFDFFF085E
(1536064745.188621) can0 188#06027FF7F7DE
(1536064745.189459) can0 356#01000E390E390E49
(1536064745.190168) can0 357#01000E4F
(1536064745.190963) can0 358#01000E360E320E53
(1536064745.191583) can0 359#01000E53
(1536064745.192424) can0 35A#01000E520E550E32
(1536064745.193054) can0 35B#01000E52
(1536064745.193996) can0 56A#01FF000000000000
(1536064745.194892) can0 67A#010007CD07C50855
(1536064745.195741) can0 67B#010007DC08AF08CA
(1536064745.196650) can0 67C#010007D908A3
(1536064745.197470) can0 184#0701436572697A61
(1536064745.198284) can0 184#0702795F55323700
(1536064745.199121) can0 184#070340490CE40300
(1536064745.199934) can0 0C4#3D3B403E5B0E2D0E
(1536064745.200805) can0 0C1#0E03801105920E00
(1536064745.201692) can0 0C0#630A000000080000
(1536064745.202424) can0 0C2#0000000000
(1536064745.739828) can0 188#0701FB5FFFFE079B
(1536064745.740578) can0 188#0702B6FFDFFE
(1536064745.741427) can0 188#0801FFEBFEDF088B
(1536064745.742114) can0 188#0802FFF3FFFA
(1536064745.742975) can0 35C#01000E310E520E4B
(1536064745.743574) can0 35D#01000E55
(1536064745.744480) can0 35E#01000E500E350E30
(1536064745.745127) can0 35F#01000E51
(1536064745.745935) can0 184#0801436572697A61
(1536064745.746743) can0 184#0802795F55323700
(1536064745.747583) can0 184#080340820CE40300
(1536064745.748446) can0 0C4#3D3B403E5A0E2A0E
(1536064745.749308) can0 0C1#0E04801105920E00
(1536064745.750200) can0 0C0#630A000000080000
(1536064745.750930) can0 0C2#0000000000
(1536064746.341661) can0 188#0101FFFB7EFE07D6
(1536064746.342409) can0 188#0102FBFFFFFF
(1536064746.343225) can0 188#0201FBFBDEFE0788
(1536064746.343926) can0 188#020237FDCDFF
(1536064746.344806) can0 188#03013CE9DFFF082A
(1536064746.345472) can0 188#0302FBFDB7FB
(1536064746.346319) can0 350#01000E470E370E55
(1536064746.346943) can0 351#01000E4A
(1536064746.347781) can0 352#01000E2B0E4A0E4F
(1536064746.348414) can0 353#01000E4B
(1536064746.349269) can0 354#01000E3C0E360E58
(1536064746.349944) can0 355#01000E58
(1536064746.350948) can0 76A#010007E607A2084B
(1536064746.351711) can0 76B#010007F60867087D
(1536064746.352598) can0 76C#010007BB0892
(1536064746.353821) can0 184#FF01FFFFFFFFFFFF
(1536064746.354319) can0 184#FF02FFFFFFFFFFFF
(1536064746.355176) can0 184#FF03FFFFFFFFFFFF
(1536064746.356026) can0 0C4#3D3BF03E580E2B0E
(1536064746.356866) can0 0C1#0E04801105920E00
(1536064746.357782) can0 0C0#630A000000080000
(1536064746.358509) can0 0C2#0000000000
(1536064746.895150) can0 188#0401EF9FFFF707DB
(1536064746.895869) can0 188#0402FF56EBFF
(1536064746.896689) can0 188#0501B7BFFEFB085C
(1536064746.897396) can0 188#05023DDFFF7F
(1536064746.898241) can0 188#0601FFFFDFFF0860
(1536064746.898982) can0 188#06027FF7F7DE
(1536064746.899814) can0 356#01000E3B0E390E4A
(1536064746.900448) can0 357#01000E52
(1536064746.901294) can0 358#01000E370E310E52
(1536064746.902021) can0 359#01000E53
(1536064746.902782) can0 35A#01000E510E550E32
(1536064746.903417) can0 35B#01000E51
(1536064746.904385) can0 06A#01FEFEFEFEFEFEFE
(1536064746.905065) can0 06B#01FE
(1536064746.906014) can0 26A#013F3F3F3F3F3F3F
(1536064746.906729) can0 26B#013F
(1536064746.907606) can0 184#0101436572697A61
(1536064746.908408) can0 184#0102795F55323700
(1536064746.909227) can0 184#0103403C0CE40300
(1536064746.910160) can0 0C4#3D3B403E5A0E2C0E
(1536064746.910914) can0 0C1#0E04801105920E00
(1536064746.911948) can0 0C0#630A000000080000
(1536064746.912525) can0 0C2#0000000000
(1536064747.450317) can0 188#0701FB5FFFFE079B
(1536064747.451013) can0 188#0702B6FFDFFE
(1536064747.451983) can0 188#0801FFEBFEDF088A
(1536064747.452695) can0 188#0802FFF3FFFA
(1536064747.453429) can0 35C#01000E320E510E4A
(1536064747.454044) can0 35D#01000E55
(1536064747.454916) can0 35E#01000E510E350E30
(1536064747.455548) can0 35F#01000E51
(1536064747.456460) can0 16A#0100000000000000
(1536064747.457465) can0 16C#0100000000000000
(1536064747.458177) can0 184#0201436572697A61
(1536064747.458994) can0 184#0202795F55323700
(1536064747.459802) can0 184#020340510CE40300
(1536064747.460615) can0 0C4#3D3B403E5A0E2B0E
(1536064747.461503) can0 0C1#0E04801105920E00
(1536064747.462385) can0 0C0#630A000000080000
(1536064747.463109) can0 0C2#0000000000
(1536064747.846649) can0 180#9C0A260122434F33
(1536064748.035532) can0 188#0101FFFB7EFE07D6
(1536064748.037154) can0 188#0102FBFFFFFF
(1536064748.037241) can0 188#0201FBFBDEFE0788
(1536064748.040412) can0 188#020237FDCDFF
(1536064748.040479) can0 188#03013CE9DFFF082B
(1536064748.040511) can0 188#0302FBFDB7FB
(1536064748.040542) can0 350#01000E460E380E56
(1536064748.040823) can0 351#01000E4B
(1536064748.041664) can0 352#01000E2B0E490E4F
(1536064748.042288) can0 353#01000E4C
(1536064748.043135) can0 354#01000E3C0E370E58
(1536064748.043754) can0 355#01000E5B
(1536064748.044725) can0 46A#0100007B009A0062
(1536064748.045529) can0 46B#010000710063006C
(1536064748.046439) can0 46C#01000064005F
(1536064748.047262) can0 184#0301436572697A61
(1536064748.048090) can0 184#0302795F55323700
(1536064748.048906) can0 184#030340A50CE40300
(1536064748.049731) can0 0C4#3D3B403E5B0E2C0E
(1536064748.050601) can0 0C1#0E04801105920E00
(1536064748.051507) can0 0C0#630A000000080000
(1536064748.052226) can0 0C2#0000000000
(1536064748.613195) can0 188#0401EF9FFFF707DC
(1536064748.613304) can0 188#0402FF56EBFF
(1536064748.613356) can0 188#0501B7BFFEFB085C
(1536064748.613387) can0 188#05023DDFFF7F
(1536064748.613418) can0 188#0601FFFFDFFF085F
(1536064748.613451) can0 188#06027FF7F7DE
(1536064748.613482) can0 356#01000E390E390E4C
(1536064748.613513) can0 357#01000E4F
(1536064748.613543) can0 358#01000E350E310E52
(1536064748.613573) can0 359#01000E50
(1536064748.613604) can0 35A#01000E510E550E30
(1536064748.613879) can0 35B#01000E52
(1536064748.614793) can0 56A#01FF000000000000
(1536064748.615708) can0 67A#010007CE07C40855
(1536064748.616557) can0 67B#010007DC08AD08CA
(1536064748.617491) can0 67C#010007DA08A4
(1536064748.618309) can0 184#0401436572697A61
(1536064748.619123) can0 184#0402795F55323700
(1536064748.619926) can0 184#0403403F0CE40300
(1536064748.620784) can0 0C4#3D3B403E5A0E2B0E
(1536064748.621630) can0 0C1#0E03801105920E00
(1536064748.622605) can0 0C0#630A000000080000
(1536064748.623352) can0 0C2#0000000000
(1536064749.160826) can0 188#0701FB5FFFFE0799
(1536064749.161555) can0 188#0702B6FFDFFE
(1536064749.162384) can0 188#0801FFEBFEDF088A
(1536064749.163154) can0 188#0802FFF3FFFA
(1536064749.163977) can0 35C#01000E300E510E4A
(1536064749.164610) can0 35D#01000E54
(1536064749.165487) can0 35E#01000E500E350E30
(1536064749.166117) can0 35F#01000E51
(1536064749.166943) can0 184#0501436572697A61
(1536064749.167774) can0 184#0502795F55323700
(1536064749.168570) can0 184#050340700CE40300
(1536064749.169382) can0 0C4#3D3B403E590E2B0E
(1536064749.170262) can0 0C1#0E03801105920E00
(1536064749.171178) can0 0C0#630A000000080000
(1536064749.172143) can0 0C2#0000000000
(1536064749.752597) can0 188#0101FFFB7EFE07D7
(1536064749.753359) can0 188#0102FBFFFFFF
(1536064749.754141) can0 188#0201FBFBDEFE0788
(1536064749.754851) can0 188#020237FDCDFF
(1536064749.755860) can0 188#03013CE9DFFF082C
(1536064749.756977) can0 188#0302FBFDB7FB
(1536064749.758104) can0 350#01000E460E370E55
(1536064749.758149) can0 351#01000E4A
(1536064749.759223) can0 352#01000E2A0E4A0E4F
(1536064749.759345) can0 353#01000E4B
(1536064749.760475) can0 354#01000E3C0E350E58
(1536064749.761429) can0 355#01000E5A
(1536064749.761750) can0 76A#010007E707A10849
(1536064749.762619) can0 76B#010007F70868087E
(1536064749.763528) can0 76C#010007BA0892
(1536064749.764359) can0 184#0601436572697A61
